INFO:root:Time Consuming: 173.9093496799469
DEBUG:pymodbus.transaction:Current transaction state - IDLE
DEBUG:pymodbus.transaction:Running transaction 1
DEBUG:pymodbus.transaction:SEND: 0x0 0x1 0x0 0x0 0x0 0x6 0x1 0x3 0x0 0x0 0x0 0x8
DEBUG:pymodbus.client.sync:New Transaction state 'SENDING'
DEBUG:pymodbus.transaction:Changing transaction state from 'SENDING' to 'WAITING FOR REPLY'
DEBUG:pymodbus.transaction:Transaction failed. (Modbus Error: [Invalid Message] Incomplete message received, expected at least 8 bytes (0 received)) 
DEBUG:pymodbus.framer.socket_framer:Processing: 
DEBUG:pymodbus.transaction:Getting transaction 1
DEBUG:pymodbus.transaction:Changing transaction state from 'PROCESSING REPLY' to 'TRANSACTION_COMPLETE'
DEBUG:pymodbus.transaction:Current transaction state - TRANSACTION_COMPLETE
DEBUG:pymodbus.transaction:Running transaction 2
DEBUG:pymodbus.transaction:SEND: 0x0 0x2 0x0 0x0 0x0 0x6 0x1 0x3 0x0 0x40 0x0 0x8
DEBUG:pymodbus.client.sync:New Transaction state 'SENDING'
DEBUG:pymodbus.transaction:Changing transaction state from 'SENDING' to 'WAITING FOR REPLY'
DEBUG:pymodbus.transaction:Changing transaction state from 'WAITING FOR REPLY' to 'PROCESSING REPLY'
DEBUG:pymodbus.transaction:RECV: 
DEBUG:pymodbus.framer.socket_framer:Processing: 
DEBUG:pymodbus.transaction:Getting transaction 2
DEBUG:pymodbus.transaction:Changing transaction state from 'PROCESSING REPLY' to 'TRANSACTION_COMPLETE'
DEBUG:pymodbus.transaction:Current transaction state - TRANSACTION_COMPLETE
DEBUG:pymodbus.transaction:Running transaction 3
DEBUG:pymodbus.transaction:SEND: 0x0 0x3 0x0 0x0 0x0 0x6 0x1 0x3 0x0 0x80 0x0 0x8
DEBUG:pymodbus.client.sync:New Transaction state 'SENDING'
DEBUG:pymodbus.transaction:Changing transaction state from 'SENDING' to 'WAITING FOR REPLY'
DEBUG:pymodbus.transaction:Changing transaction state from 'WAITING FOR REPLY' to 'PROCESSING REPLY'
DEBUG:pymodbus.transaction:RECV: 
DEBUG:pymodbus.framer.socket_framer:Processing: 
DEBUG:pymodbus.transaction:Getting transaction 3
DEBUG:pymodbus.transaction:Changing transaction state from 'PROCESSING REPLY' to 'TRANSACTION_COMPLETE'
DEBUG:pymodbus.transaction:Current transaction state - TRANSACTION_COMPLETE
DEBUG:pymodbus.transaction:Running transaction 4
DEBUG:pymodbus.transaction:SEND: 0x0 0x4 0x0 0x0 0x0 0x6 0x1 0x3 0x0 0xc0 0x0 0x8
DEBUG:pymodbus.client.sync:New Transaction state 'SENDING'
DEBUG:pymodbus.transaction:Changing transaction state from 'SENDING' to 'WAITING FOR REPLY'
DEBUG:pymodbus.transaction:Changing transaction state from 'WAITING FOR REPLY' to 'PROCESSING REPLY'
DEBUG:pymodbus.transaction:RECV: 
DEBUG:pymodbus.framer.socket_framer:Processing: 
DEBUG:pymodbus.transaction:Getting transaction 4
DEBUG:pymodbus.transaction:Changing transaction state from 'PROCESSING REPLY' to 'TRANSACTION_COMPLETE'
DEBUG:pymodbus.transaction:Current transaction state - TRANSACTION_COMPLETE
DEBUG:pymodbus.transaction:Running transaction 5
DEBUG:pymodbus.transaction:SEND: 0x0 0x5 0x0 0x0 0x0 0x6 0x1 0x3 0x1 0x0 0x0 0x8
DEBUG:pymodbus.client.sync:New Transaction state 'SENDING'
DEBUG:pymodbus.transaction:Changing transaction state from 'SENDING' to 'WAITING FOR REPLY'
DEBUG:pymodbus.transaction:Changing transaction state from 'WAITING FOR REPLY' to 'PROCESSING REPLY'
DEBUG:pymodbus.transaction:RECV: 
DEBUG:pymodbus.framer.socket_framer:Processing: 
DEBUG:pymodbus.transaction:Getting transaction 5
DEBUG:pymodbus.transaction:Changing transaction state from 'PROCESSING REPLY' to 'TRANSACTION_COMPLETE'
DEBUG:pymodbus.transaction:Current transaction state - TRANSACTION_COMPLETE
DEBUG:pymodbus.transaction:Running transaction 6
DEBUG:pymodbus.transaction:SEND: 0x0 0x6 0x0 0x0 0x0 0x6 0x1 0x3 0x1 0x40 0x0 0x8
DEBUG:pymodbus.client.sync:New Transaction state 'SENDING'
DEBUG:pymodbus.transaction:Changing transaction state from 'SENDING' to 'WAITING FOR REPLY'
DEBUG:pymodbus.transaction:Changing transaction state from 'WAITING FOR REPLY' to 'PROCESSING REPLY'
DEBUG:pymodbus.transaction:RECV: 
DEBUG:pymodbus.framer.socket_framer:Processing: 
DEBUG:pymodbus.transaction:Getting transaction 6
DEBUG:pymodbus.transaction:Changing transaction state from 'PROCESSING REPLY' to 'TRANSACTION_COMPLETE'
DEBUG:pymodbus.transaction:Current transaction state - TRANSACTION_COMPLETE
DEBUG:pymodbus.transaction:Running transaction 7
DEBUG:pymodbus.transaction:SEND: 0x0 0x7 0x0 0x0 0x0 0x6 0x1 0x3 0x1 0x80 0x0 0x8
DEBUG:pymodbus.client.sync:New Transaction state 'SENDING'
DEBUG:pymodbus.transaction:Changing transaction state from 'SENDING' to 'WAITING FOR REPLY'
DEBUG:pymodbus.transaction:Changing transaction state from 'WAITING FOR REPLY' to 'PROCESSING REPLY'
DEBUG:pymodbus.transaction:RECV: 
DEBUG:pymodbus.framer.socket_framer:Processing: 
DEBUG:pymodbus.transaction:Getting transaction 7
DEBUG:pymodbus.transaction:Changing transaction state from 'PROCESSING REPLY' to 'TRANSACTION_COMPLETE'
DEBUG:pymodbus.transaction:Current transaction state - TRANSACTION_COMPLETE
DEBUG:pymodbus.transaction:Running transaction 8
DEBUG:pymodbus.transaction:SEND: 0x0 0x8 0x0 0x0 0x0 0x6 0x1 0x3 0x1 0xc0 0x0 0x8
DEBUG:pymodbus.client.sync:New Transaction state 'SENDING'
DEBUG:pymodbus.transaction:Changing transaction state from 'SENDING' to 'WAITING FOR REPLY'
DEBUG:pymodbus.transaction:Changing transaction state from 'WAITING FOR REPLY' to 'PROCESSING REPLY'
DEBUG:pymodbus.transaction:RECV: 
DEBUG:pymodbus.framer.socket_framer:Processing: 
DEBUG:pymodbus.transaction:Getting transaction 8
DEBUG:pymodbus.transaction:Changing transaction state from 'PROCESSING REPLY' to 'TRANSACTION_COMPLETE'
DEBUG:pymodbus.transaction:Current transaction state - TRANSACTION_COMPLETE
DEBUG:pymodbus.transaction:Running transaction 9
DEBUG:pymodbus.transaction:SEND: 0x0 0x9 0x0 0x0 0x0 0x6 0x1 0x3 0x2 0x0 0x0 0x8
DEBUG:pymodbus.client.sync:New Transaction state 'SENDING'
DEBUG:pymodbus.transaction:Changing transaction state from 'SENDING' to 'WAITING FOR REPLY'
DEBUG:pymodbus.transaction:Changing transaction state from 'WAITING FOR REPLY' to 'PROCESSING REPLY'
DEBUG:pymodbus.transaction:RECV: 
DEBUG:pymodbus.framer.socket_framer:Processing: 
DEBUG:pymodbus.transaction:Getting transaction 9
DEBUG:pymodbus.transaction:Changing transaction state from 'PROCESSING REPLY' to 'TRANSACTION_COMPLETE'
DEBUG:pymodbus.transaction:Current transaction state - TRANSACTION_COMPLETE
DEBUG:pymodbus.transaction:Running transaction 10
DEBUG:pymodbus.transaction:SEND: 0x0 0xa 0x0 0x0 0x0 0x6 0x1 0x3 0x2 0x40 0x0 0x8
DEBUG:pymodbus.client.sync:New Transaction state 'SENDING'
DEBUG:pymodbus.transaction:Changing transaction state from 'SENDING' to 'WAITING FOR REPLY'
DEBUG:pymodbus.transaction:Changing transaction state from 'WAITING FOR REPLY' to 'PROCESSING REPLY'
DEBUG:pymodbus.transaction:RECV: 
DEBUG:pymodbus.framer.socket_framer:Processing: 
DEBUG:pymodbus.transaction:Getting transaction 10
DEBUG:pymodbus.transaction:Changing transaction state from 'PROCESSING REPLY' to 'TRANSACTION_COMPLETE'
DEBUG:pymodbus.transaction:Current transaction state - TRANSACTION_COMPLETE
DEBUG:pymodbus.transaction:Running transaction 11
DEBUG:pymodbus.transaction:SEND: 0x0 0xb 0x0 0x0 0x0 0x6 0x1 0x3 0x2 0x80 0x0 0x8
DEBUG:pymodbus.client.sync:New Transaction state 'SENDING'
DEBUG:pymodbus.transaction:Changing transaction state from 'SENDING' to 'WAITING FOR REPLY'
DEBUG:pymodbus.transaction:Changing transaction state from 'WAITING FOR REPLY' to 'PROCESSING REPLY'
DEBUG:pymodbus.transaction:RECV: 
DEBUG:pymodbus.framer.socket_framer:Processing: 
DEBUG:pymodbus.transaction:Getting transaction 11
DEBUG:pymodbus.transaction:Changing transaction state from 'PROCESSING REPLY' to 'TRANSACTION_COMPLETE'
DEBUG:pymodbus.transaction:Current transaction state - TRANSACTION_COMPLETE
DEBUG:pymodbus.transaction:Running transaction 12
DEBUG:pymodbus.transaction:SEND: 0x0 0xc 0x0 0x0 0x0 0x6 0x1 0x3 0x2 0xc0 0x0 0x8
DEBUG:pymodbus.client.sync:New Transaction state 'SENDING'
DEBUG:pymodbus.transaction:Changing transaction state from 'SENDING' to 'WAITING FOR REPLY'
DEBUG:pymodbus.transaction:Changing transaction state from 'WAITING FOR REPLY' to 'PROCESSING REPLY'
DEBUG:pymodbus.transaction:RECV: 
DEBUG:pymodbus.framer.socket_framer:Processing: 
DEBUG:pymodbus.transaction:Getting transaction 12
DEBUG:pymodbus.transaction:Changing transaction state from 'PROCESSING REPLY' to 'TRANSACTION_COMPLETE'
DEBUG:pymodbus.transaction:Current transaction state - TRANSACTION_COMPLETE
DEBUG:pymodbus.transaction:Running transaction 13
DEBUG:pymodbus.transaction:SEND: 0x0 0xd 0x0 0x0 0x0 0x6 0x1 0x3 0x3 0x0 0x0 0x8
DEBUG:pymodbus.client.sync:New Transaction state 'SENDING'
DEBUG:pymodbus.transaction:Changing transaction state from 'SENDING' to 'WAITING FOR REPLY'
DEBUG:pymodbus.transaction:Changing transaction state from 'WAITING FOR REPLY' to 'PROCESSING REPLY'
DEBUG:pymodbus.transaction:RECV: 
DEBUG:pymodbus.framer.socket_framer:Processing: 
DEBUG:pymodbus.transaction:Getting transaction 13
DEBUG:pymodbus.transaction:Changing transaction state from 'PROCESSING REPLY' to 'TRANSACTION_COMPLETE'
DEBUG:pymodbus.transaction:Current transaction state - TRANSACTION_COMPLETE
DEBUG:pymodbus.transaction:Running transaction 14
DEBUG:pymodbus.transaction:SEND: 0x0 0xe 0x0 0x0 0x0 0x6 0x1 0x3 0x3 0x40 0x0 0x8
DEBUG:pymodbus.client.sync:New Transaction state 'SENDING'
DEBUG:pymodbus.transaction:Changing transaction state from 'SENDING' to 'WAITING FOR REPLY'
DEBUG:pymodbus.transaction:Current transaction state - IDLE
DEBUG:pymodbus.transaction:Running transaction 1
DEBUG:pymodbus.transaction:SEND: 0x1 0x3 0x0 0x0 0x0 0x8 0x44 0xc
DEBUG:pymodbus.client.sync:New Transaction state 'SENDING'
DEBUG:pymodbus.transaction:Changing transaction state from 'SENDING' to 'WAITING FOR REPLY'
DEBUG:pymodbus.transaction:Changing transaction state from 'WAITING FOR REPLY' to 'PROCESSING REPLY'
DEBUG:pymodbus.transaction:RECV: 0x1 0x3 0x10 0x81 0x82 0xff 0xfe 0xf2 0x2 0x1 0x3e 0x0 0x0 0x0 0x0 0x0 0x0 0x0 0x0 0x17 0x52
DEBUG:pymodbus.framer.rtu_framer:Getting Frame - 0x3 0x10 0x81 0x82 0xff 0xfe 0xf2 0x2 0x1 0x3e 0x0 0x0 0x0 0x0 0x0 0x0 0x0 0x0
DEBUG:pymodbus.factory:Factory Response[ReadHoldingRegistersResponse: 3]
DEBUG:pymodbus.framer.rtu_framer:Frame advanced, resetting header!!
DEBUG:pymodbus.transaction:Adding transaction 1
DEBUG:pymodbus.transaction:Getting transaction 1
DEBUG:pymodbus.transaction:Changing transaction state from 'PROCESSING REPLY' to 'TRANSACTION_COMPLETE'
DEBUG:pymodbus.transaction:Current transaction state - TRANSACTION_COMPLETE
DEBUG:pymodbus.transaction:Running transaction 2
DEBUG:pymodbus.transaction:SEND: 0x1 0x3 0x0 0x40 0x0 0x8 0x45 0xd8
DEBUG:pymodbus.framer.rtu_framer:Changing state to IDLE - Last Frame End - 1605262248.280822, Current Time stamp - 1605262248.281819
DEBUG:pymodbus.client.sync:New Transaction state 'SENDING'
DEBUG:pymodbus.transaction:Changing transaction state from 'SENDING' to 'WAITING FOR REPLY'
DEBUG:pymodbus.transaction:Changing transaction state from 'WAITING FOR REPLY' to 'PROCESSING REPLY'
DEBUG:pymodbus.transaction:RECV: 0x1 0x3 0x10 0x81 0x82 0x2 0x5f 0xf2 0x2 0x1 0x3c 0x0 0x0 0x0 0x0 0x0 0x0 0x0 0x0 0x70 0x2f
DEBUG:pymodbus.framer.rtu_framer:Getting Frame - 0x3 0x10 0x81 0x82 0x2 0x5f 0xf2 0x2 0x1 0x3c 0x0 0x0 0x0 0x0 0x0 0x0 0x0 0x0
DEBUG:pymodbus.factory:Factory Response[ReadHoldingRegistersResponse: 3]
DEBUG:pymodbus.framer.rtu_framer:Frame advanced, resetting header!!
DEBUG:pymodbus.transaction:Adding transaction 1
DEBUG:pymodbus.transaction:Getting transaction 1
DEBUG:pymodbus.transaction:Changing transaction state from 'PROCESSING REPLY' to 'TRANSACTION_COMPLETE'
DEBUG:pymodbus.transaction:Current transaction state - TRANSACTION_COMPLETE
DEBUG:pymodbus.transaction:Running transaction 3
DEBUG:pymodbus.transaction:SEND: 0x1 0x3 0x0 0x80 0x0 0x8 0x45 0xe4
DEBUG:pymodbus.framer.rtu_framer:Changing state to IDLE - Last Frame End - 1605262248.290803, Current Time stamp - 1605262248.291792
DEBUG:pymodbus.client.sync:New Transaction state 'SENDING'
DEBUG:pymodbus.transaction:Changing transaction state from 'SENDING' to 'WAITING FOR REPLY'
DEBUG:pymodbus.transaction:Changing transaction state from 'WAITING FOR REPLY' to 'PROCESSING REPLY'
DEBUG:pymodbus.transaction:RECV: 0x1 0x3 0x10 0x1 0x81 0x0 0xcb 0xf2 0x2 0x1 0x2c 0x0 0x0 0x0 0x0 0x0 0x0 0x0 0x0 0x53 0x59
DEBUG:pymodbus.framer.rtu_framer:Getting Frame - 0x3 0x10 0x1 0x81 0x0 0xcb 0xf2 0x2 0x1 0x2c 0x0 0x0 0x0 0x0 0x0 0x0 0x0 0x0
DEBUG:pymodbus.factory:Factory Response[ReadHoldingRegistersResponse: 3]
DEBUG:pymodbus.framer.rtu_framer:Frame advanced, resetting header!!
DEBUG:pymodbus.transaction:Adding transaction 1
DEBUG:pymodbus.transaction:Getting transaction 1
DEBUG:pymodbus.transaction:Changing transaction state from 'PROCESSING REPLY' to 'TRANSACTION_COMPLETE'
DEBUG:pymodbus.transaction:Current transaction state - TRANSACTION_COMPLETE
DEBUG:pymodbus.transaction:Running transaction 4
DEBUG:pymodbus.transaction:SEND: 0x1 0x3 0x0 0xc0 0x0 0x8 0x44 0x30
DEBUG:pymodbus.framer.rtu_framer:Changing state to IDLE - Last Frame End - 1605262248.301867, Current Time stamp - 1605262248.301867
DEBUG:pymodbus.framer.rtu_framer:Waiting for 3.5 char before next send - 0 ms
DEBUG:pymodbus.client.sync:New Transaction state 'SENDING'
DEBUG:pymodbus.transaction:Changing transaction state from 'SENDING' to 'WAITING FOR REPLY'
DEBUG:pymodbus.transaction:Changing transaction state from 'WAITING FOR REPLY' to 'PROCESSING REPLY'
DEBUG:pymodbus.transaction:RECV: 0x1 0x3 0x10 0x1 0x81 0x0 0xcb 0xf2 0x2 0x1 0x37 0x0 0x0 0x0 0x0 0x0 0x0 0x0 0x0 0xed 0xa9
DEBUG:pymodbus.framer.rtu_framer:Getting Frame - 0x3 0x10 0x1 0x81 0x0 0xcb 0xf2 0x2 0x1 0x37 0x0 0x0 0x0 0x0 0x0 0x0 0x0 0x0
DEBUG:pymodbus.factory:Factory Response[ReadHoldingRegistersResponse: 3]
DEBUG:pymodbus.framer.rtu_framer:Frame advanced, resetting header!!
DEBUG:pymodbus.transaction:Adding transaction 1
DEBUG:pymodbus.transaction:Getting transaction 1
DEBUG:pymodbus.transaction:Changing transaction state from 'PROCESSING REPLY' to 'TRANSACTION_COMPLETE'
DEBUG:pymodbus.transaction:Current transaction state - TRANSACTION_COMPLETE
DEBUG:pymodbus.transaction:Running transaction 5
DEBUG:pymodbus.transaction:SEND: 0x1 0x3 0x1 0x0 0x0 0x8 0x45 0xf0
DEBUG:pymodbus.framer.rtu_framer:Changing state to IDLE - Last Frame End - 1605262248.313164, Current Time stamp - 1605262248.313164
DEBUG:pymodbus.framer.rtu_framer:Waiting for 3.5 char before next send - 0 ms
DEBUG:pymodbus.client.sync:New Transaction state 'SENDING'
DEBUG:pymodbus.transaction:Changing transaction state from 'SENDING' to 'WAITING FOR REPLY'
DEBUG:pymodbus.transaction:Changing transaction state from 'WAITING FOR REPLY' to 'PROCESSING REPLY'
DEBUG:pymodbus.transaction:RECV: 0x1 0x3 0x10 0x1 0x81 0x0 0xc8 0xf2 0x2 0x1 0x42 0x0 0x0 0x0 0x0 0x0 0x0 0x0 0x0 0xb2 0xf8
DEBUG:pymodbus.framer.rtu_framer:Getting Frame - 0x3 0x10 0x1 0x81 0x0 0xc8 0xf2 0x2 0x1 0x42 0x0 0x0 0x0 0x0 0x0 0x0 0x0 0x0
DEBUG:pymodbus.factory:Factory Response[ReadHoldingRegistersResponse: 3]
DEBUG:pymodbus.framer.rtu_framer:Frame advanced, resetting header!!
DEBUG:pymodbus.transaction:Adding transaction 1
DEBUG:pymodbus.transaction:Getting transaction 1
DEBUG:pymodbus.transaction:Changing transaction state from 'PROCESSING REPLY' to 'TRANSACTION_COMPLETE'
DEBUG:pymodbus.transaction:Current transaction state - TRANSACTION_COMPLETE
DEBUG:pymodbus.transaction:Running transaction 6
DEBUG:pymodbus.transaction:SEND: 0x1 0x3 0x1 0x40 0x0 0x8 0x44 0x24
DEBUG:pymodbus.framer.rtu_framer:Changing state to IDLE - Last Frame End - 1605262248.323318, Current Time stamp - 1605262248.32432
DEBUG:pymodbus.client.sync:New Transaction state 'SENDING'
DEBUG:pymodbus.transaction:Changing transaction state from 'SENDING' to 'WAITING FOR REPLY'
DEBUG:pymodbus.transaction:Changing transaction state from 'WAITING FOR REPLY' to 'PROCESSING REPLY'
DEBUG:pymodbus.transaction:RECV: 0x1 0x3 0x10 0x1 0x81 0x0 0xc9 0xf2 0x2 0x1 0x38 0x0 0x0 0x0 0x0 0x0 0x0 0x0 0x0 0xab 0x1b
DEBUG:pymodbus.framer.rtu_framer:Getting Frame - 0x3 0x10 0x1 0x81 0x0 0xc9 0xf2 0x2 0x1 0x38 0x0 0x0 0x0 0x0 0x0 0x0 0x0 0x0
DEBUG:pymodbus.factory:Factory Response[ReadHoldingRegistersResponse: 3]
DEBUG:pymodbus.framer.rtu_framer:Frame advanced, resetting header!!
DEBUG:pymodbus.transaction:Adding transaction 1
DEBUG:pymodbus.transaction:Getting transaction 1
DEBUG:pymodbus.transaction:Changing transaction state from 'PROCESSING REPLY' to 'TRANSACTION_COMPLETE'
DEBUG:pymodbus.transaction:Current transaction state - TRANSACTION_COMPLETE
DEBUG:pymodbus.transaction:Running transaction 7
DEBUG:pymodbus.transaction:SEND: 0x1 0x3 0x1 0x80 0x0 0x8 0x44 0x18
DEBUG:pymodbus.framer.rtu_framer:Changing state to IDLE - Last Frame End - 1605262248.3343, Current Time stamp - 1605262248.3343
DEBUG:pymodbus.framer.rtu_framer:Waiting for 3.5 char before next send - 0 ms
DEBUG:pymodbus.client.sync:New Transaction state 'SENDING'
DEBUG:pymodbus.transaction:Changing transaction state from 'SENDING' to 'WAITING FOR REPLY'
DEBUG:pymodbus.transaction:Changing transaction state from 'WAITING FOR REPLY' to 'PROCESSING REPLY'
DEBUG:pymodbus.transaction:RECV: 0x1 0x3 0x10 0x1 0x81 0x0 0xdc 0xf2 0x2 0x1 0x2d 0x0 0x0 0x0 0x0 0x0 0x0 0x0 0x0 0x6b 0x1e
DEBUG:pymodbus.framer.rtu_framer:Getting Frame - 0x3 0x10 0x1 0x81 0x0 0xdc 0xf2 0x2 0x1 0x2d 0x0 0x0 0x0 0x0 0x0 0x0 0x0 0x0
DEBUG:pymodbus.factory:Factory Response[ReadHoldingRegistersResponse: 3]
DEBUG:pymodbus.framer.rtu_framer:Frame advanced, resetting header!!
DEBUG:pymodbus.transaction:Adding transaction 1
DEBUG:pymodbus.transaction:Getting transaction 1
DEBUG:pymodbus.transaction:Changing transaction state from 'PROCESSING REPLY' to 'TRANSACTION_COMPLETE'
DEBUG:pymodbus.transaction:Current transaction state - TRANSACTION_COMPLETE
DEBUG:pymodbus.transaction:Running transaction 8
DEBUG:pymodbus.transaction:SEND: 0x1 0x3 0x1 0xc0 0x0 0x8 0x45 0xcc
DEBUG:pymodbus.framer.rtu_framer:Changing state to IDLE - Last Frame End - 1605262248.344551, Current Time stamp - 1605262248.345373
DEBUG:pymodbus.client.sync:New Transaction state 'SENDING'
DEBUG:pymodbus.transaction:Changing transaction state from 'SENDING' to 'WAITING FOR REPLY'
DEBUG:pymodbus.transaction:Changing transaction state from 'WAITING FOR REPLY' to 'PROCESSING REPLY'
DEBUG:pymodbus.transaction:RECV: 0x1 0x3 0x10 0x1 0x81 0x0 0xde 0xf2 0x2 0x1 0x30 0x0 0x0 0x0 0x0 0x0 0x0 0x0 0x0 0xf9 0xc
DEBUG:pymodbus.framer.rtu_framer:Getting Frame - 0x3 0x10 0x1 0x81 0x0 0xde 0xf2 0x2 0x1 0x30 0x0 0x0 0x0 0x0 0x0 0x0 0x0 0x0
DEBUG:pymodbus.factory:Factory Response[ReadHoldingRegistersResponse: 3]
DEBUG:pymodbus.framer.rtu_framer:Frame advanced, resetting header!!
DEBUG:pymodbus.transaction:Adding transaction 1
DEBUG:pymodbus.transaction:Getting transaction 1
DEBUG:pymodbus.transaction:Changing transaction state from 'PROCESSING REPLY' to 'TRANSACTION_COMPLETE'
DEBUG:pymodbus.transaction:Current transaction state - TRANSACTION_COMPLETE
DEBUG:pymodbus.transaction:Running transaction 9
DEBUG:pymodbus.transaction:SEND: 0x1 0x3 0x2 0x0 0x0 0x8 0x45 0xb4
DEBUG:pymodbus.framer.rtu_framer:Changing state to IDLE - Last Frame End - 1605262248.357482, Current Time stamp - 1605262248.358479
DEBUG:pymodbus.client.sync:New Transaction state 'SENDING'
DEBUG:pymodbus.transaction:Changing transaction state from 'SENDING' to 'WAITING FOR REPLY'
DEBUG:pymodbus.transaction:Changing transaction state from 'WAITING FOR REPLY' to 'PROCESSING REPLY'
DEBUG:pymodbus.transaction:RECV: 0x1 0x3 0x10 0x1 0x81 0x0 0xdd 0xf2 0x2 0x1 0x2e 0x0 0x0 0x0 0x0 0x0 0x0 0x0 0x0 0x7d 0x6f
DEBUG:pymodbus.framer.rtu_framer:Getting Frame - 0x3 0x10 0x1 0x81 0x0 0xdd 0xf2 0x2 0x1 0x2e 0x0 0x0 0x0 0x0 0x0 0x0 0x0 0x0
DEBUG:pymodbus.factory:Factory Response[ReadHoldingRegistersResponse: 3]
DEBUG:pymodbus.framer.rtu_framer:Frame advanced, resetting header!!
DEBUG:pymodbus.transaction:Adding transaction 1
DEBUG:pymodbus.transaction:Getting transaction 1
DEBUG:pymodbus.transaction:Changing transaction state from 'PROCESSING REPLY' to 'TRANSACTION_COMPLETE'
DEBUG:pymodbus.transaction:Current transaction state - TRANSACTION_COMPLETE
DEBUG:pymodbus.transaction:Running transaction 10
DEBUG:pymodbus.transaction:SEND: 0x1 0x3 0x2 0x40 0x0 0x8 0x44 0x60
DEBUG:pymodbus.framer.rtu_framer:Changing state to IDLE - Last Frame End - 1605262248.368454, Current Time stamp - 1605262248.369451
DEBUG:pymodbus.client.sync:New Transaction state 'SENDING'
DEBUG:pymodbus.transaction:Changing transaction state from 'SENDING' to 'WAITING FOR REPLY'
DEBUG:pymodbus.transaction:Changing transaction state from 'WAITING FOR REPLY' to 'PROCESSING REPLY'
DEBUG:pymodbus.transaction:RECV: 0x1 0x3 0x10 0x1 0x81 0x0 0xcb 0xf2 0x2 0x1 0x33 0x0 0x0 0x0 0x0 0x0 0x0 0x0 0x0 0xdf 0x69
DEBUG:pymodbus.framer.rtu_framer:Getting Frame - 0x3 0x10 0x1 0x81 0x0 0xcb 0xf2 0x2 0x1 0x33 0x0 0x0 0x0 0x0 0x0 0x0 0x0 0x0
DEBUG:pymodbus.factory:Factory Response[ReadHoldingRegistersResponse: 3]
DEBUG:pymodbus.framer.rtu_framer:Frame advanced, resetting header!!
DEBUG:pymodbus.transaction:Adding transaction 1
DEBUG:pymodbus.transaction:Getting transaction 1
DEBUG:pymodbus.transaction:Changing transaction state from 'PROCESSING REPLY' to 'TRANSACTION_COMPLETE'
DEBUG:pymodbus.transaction:Current transaction state - TRANSACTION_COMPLETE
DEBUG:pymodbus.transaction:Running transaction 11
DEBUG:pymodbus.transaction:SEND: 0x1 0x3 0x2 0x80 0x0 0x8 0x44 0x5c
DEBUG:pymodbus.framer.rtu_framer:Changing state to IDLE - Last Frame End - 1605262248.379424, Current Time stamp - 1605262248.380421
DEBUG:pymodbus.client.sync:New Transaction state 'SENDING'
DEBUG:pymodbus.transaction:Changing transaction state from 'SENDING' to 'WAITING FOR REPLY'
DEBUG:pymodbus.transaction:Changing transaction state from 'WAITING FOR REPLY' to 'PROCESSING REPLY'
DEBUG:pymodbus.transaction:RECV: 0x1 0x3 0x10 0x1 0x81 0x0 0xce 0xf2 0x2 0x1 0x35 0x0 0x0 0x0 0x0 0x0 0x0 0x0 0x0 0xf8 0xcc
DEBUG:pymodbus.framer.rtu_framer:Getting Frame - 0x3 0x10 0x1 0x81 0x0 0xce 0xf2 0x2 0x1 0x35 0x0 0x0 0x0 0x0 0x0 0x0 0x0 0x0
DEBUG:pymodbus.factory:Factory Response[ReadHoldingRegistersResponse: 3]
DEBUG:pymodbus.framer.rtu_framer:Frame advanced, resetting header!!
DEBUG:pymodbus.transaction:Adding transaction 1
DEBUG:pymodbus.transaction:Getting transaction 1
DEBUG:pymodbus.transaction:Changing transaction state from 'PROCESSING REPLY' to 'TRANSACTION_COMPLETE'
DEBUG:pymodbus.transaction:Current transaction state - TRANSACTION_COMPLETE
DEBUG:pymodbus.transaction:Running transaction 12
DEBUG:pymodbus.transaction:SEND: 0x1 0x3 0x2 0xc0 0x0 0x8 0x45 0x88
DEBUG:pymodbus.framer.rtu_framer:Changing state to IDLE - Last Frame End - 1605262248.390395, Current Time stamp - 1605262248.391392
DEBUG:pymodbus.client.sync:New Transaction state 'SENDING'
DEBUG:pymodbus.transaction:Changing transaction state from 'SENDING' to 'WAITING FOR REPLY'
DEBUG:pymodbus.transaction:Changing transaction state from 'WAITING FOR REPLY' to 'PROCESSING REPLY'
DEBUG:pymodbus.transaction:RECV: 0x1 0x3 0x10 0x1 0x81 0x0 0xde 0xf2 0x2 0x1 0x36 0x0 0x0 0x0 0x0 0x0 0x0 0x0 0x0 0xd2 0xac
DEBUG:pymodbus.framer.rtu_framer:Getting Frame - 0x3 0x10 0x1 0x81 0x0 0xde 0xf2 0x2 0x1 0x36 0x0 0x0 0x0 0x0 0x0 0x0 0x0 0x0
DEBUG:pymodbus.factory:Factory Response[ReadHoldingRegistersResponse: 3]
DEBUG:pymodbus.framer.rtu_framer:Frame advanced, resetting header!!
DEBUG:pymodbus.transaction:Adding transaction 1
DEBUG:pymodbus.transaction:Getting transaction 1
DEBUG:pymodbus.transaction:Changing transaction state from 'PROCESSING REPLY' to 'TRANSACTION_COMPLETE'
DEBUG:pymodbus.transaction:Current transaction state - TRANSACTION_COMPLETE
DEBUG:pymodbus.transaction:Running transaction 13
DEBUG:pymodbus.transaction:SEND: 0x1 0x3 0x3 0x0 0x0 0x8 0x44 0x48
DEBUG:pymodbus.framer.rtu_framer:Changing state to IDLE - Last Frame End - 1605262248.401366, Current Time stamp - 1605262248.402363
DEBUG:pymodbus.client.sync:New Transaction state 'SENDING'
DEBUG:pymodbus.transaction:Changing transaction state from 'SENDING' to 'WAITING FOR REPLY'
DEBUG:pymodbus.transaction:Changing transaction state from 'WAITING FOR REPLY' to 'PROCESSING REPLY'
DEBUG:pymodbus.transaction:RECV: 0x1 0x3 0x10 0x1 0x81 0x0 0xdd 0xf2 0x2 0x1 0x2d 0x0 0x0 0x0 0x0 0x0 0x0 0x0 0x0 0x69 0x9f
DEBUG:pymodbus.framer.rtu_framer:Getting Frame - 0x3 0x10 0x1 0x81 0x0 0xdd 0xf2 0x2 0x1 0x2d 0x0 0x0 0x0 0x0 0x0 0x0 0x0 0x0
DEBUG:pymodbus.factory:Factory Response[ReadHoldingRegistersResponse: 3]
DEBUG:pymodbus.framer.rtu_framer:Frame advanced, resetting header!!
DEBUG:pymodbus.transaction:Adding transaction 1
DEBUG:pymodbus.transaction:Getting transaction 1
DEBUG:pymodbus.transaction:Changing transaction state from 'PROCESSING REPLY' to 'TRANSACTION_COMPLETE'
DEBUG:pymodbus.transaction:Current transaction state - TRANSACTION_COMPLETE
DEBUG:pymodbus.transaction:Running transaction 14
DEBUG:pymodbus.transaction:SEND: 0x1 0x3 0x3 0x40 0x0 0x8 0x45 0x9c
DEBUG:pymodbus.framer.rtu_framer:Changing state to IDLE - Last Frame End - 1605262248.412336, Current Time stamp - 1605262248.413335
DEBUG:pymodbus.client.sync:New Transaction state 'SENDING'
DEBUG:pymodbus.transaction:Changing transaction state from 'SENDING' to 'WAITING FOR REPLY'
DEBUG:pymodbus.transaction:Changing transaction state from 'WAITING FOR REPLY' to 'PROCESSING REPLY'
DEBUG:pymodbus.transaction:RECV: 0x1 0x3 0x10 0x1 0x81 0x0 0xdf 0xf2 0x2 0x1 0x31 0x0 0x0 0x0 0x0 0x0 0x0 0x0 0x0 0xf6 0x1d
DEBUG:pymodbus.framer.rtu_framer:Getting Frame - 0x3 0x10 0x1 0x81 0x0 0xdf 0xf2 0x2 0x1 0x31 0x0 0x0 0x0 0x0 0x0 0x0 0x0 0x0
DEBUG:pymodbus.factory:Factory Response[ReadHoldingRegistersResponse: 3]
DEBUG:pymodbus.framer.rtu_framer:Frame advanced, resetting header!!
DEBUG:pymodbus.transaction:Adding transaction 1
DEBUG:pymodbus.transaction:Getting transaction 1
DEBUG:pymodbus.transaction:Changing transaction state from 'PROCESSING REPLY' to 'TRANSACTION_COMPLETE'
DEBUG:pymodbus.transaction:Current transaction state - IDLE
DEBUG:pymodbus.transaction:Running transaction 1
DEBUG:pymodbus.transaction:SEND: 0x1 0x3 0x0 0x0 0x0 0x8 0x44 0xc
DEBUG:pymodbus.client.sync:New Transaction state 'SENDING'
DEBUG:pymodbus.transaction:Changing transaction state from 'SENDING' to 'WAITING FOR REPLY'
DEBUG:pymodbus.transaction:Changing transaction state from 'WAITING FOR REPLY' to 'PROCESSING REPLY'
DEBUG:pymodbus.transaction:RECV: 0x1 0x3 0x10 0x0 0x0 0x0 0x0 0x0 0x0 0x0 0x0 0x0 0x0 0x0 0x0 0x0 0x0 0x0 0x0 0xe4 0x59
DEBUG:pymodbus.framer.rtu_framer:Getting Frame - 0x3 0x10 0x0 0x0 0x0 0x0 0x0 0x0 0x0 0x0 0x0 0x0 0x0 0x0 0x0 0x0 0x0 0x0
DEBUG:pymodbus.factory:Factory Response[ReadHoldingRegistersResponse: 3]
DEBUG:pymodbus.framer.rtu_framer:Frame advanced, resetting header!!
DEBUG:pymodbus.transaction:Adding transaction 1
DEBUG:pymodbus.transaction:Getting transaction 1
DEBUG:pymodbus.transaction:Changing transaction state from 'PROCESSING REPLY' to 'TRANSACTION_COMPLETE'
DEBUG:pymodbus.transaction:Current transaction state - TRANSACTION_COMPLETE
DEBUG:pymodbus.transaction:Running transaction 2
DEBUG:pymodbus.transaction:SEND: 0x1 0x3 0x0 0x40 0x0 0x8 0x45 0xd8
DEBUG:pymodbus.framer.rtu_framer:Changing state to IDLE - Last Frame End - 1605262248.438297, Current Time stamp - 1605262248.484143
DEBUG:pymodbus.client.sync:New Transaction state 'SENDING'
DEBUG:pymodbus.transaction:Changing transaction state from 'SENDING' to 'WAITING FOR REPLY'
DEBUG:pymodbus.transaction:Changing transaction state from 'WAITING FOR REPLY' to 'PROCESSING REPLY'
DEBUG:pymodbus.transaction:RECV: 0x1 0x3 0x10 0x1 0x81 0x0 0x0 0xf2 0x2 0x0 0xe9 0x0 0x0 0x0 0x0 0x0 0x0 0x0 0x0 0x76 0x43
DEBUG:pymodbus.framer.rtu_framer:Getting Frame - 0x3 0x10 0x1 0x81 0x0 0x0 0xf2 0x2 0x0 0xe9 0x0 0x0 0x0 0x0 0x0 0x0 0x0 0x0
DEBUG:pymodbus.factory:Factory Response[ReadHoldingRegistersResponse: 3]
DEBUG:pymodbus.framer.rtu_framer:Frame advanced, resetting header!!
DEBUG:pymodbus.transaction:Adding transaction 1
DEBUG:pymodbus.transaction:Getting transaction 1
DEBUG:pymodbus.transaction:Changing transaction state from 'PROCESSING REPLY' to 'TRANSACTION_COMPLETE'
DEBUG:pymodbus.transaction:Current transaction state - IDLE
DEBUG:pymodbus.transaction:Running transaction 1
DEBUG:pymodbus.transaction:SEND: 0x1 0x3 0x0 0x0 0x0 0x8 0x44 0xc
DEBUG:pymodbus.client.sync:New Transaction state 'SENDING'
DEBUG:pymodbus.transaction:Changing transaction state from 'SENDING' to 'WAITING FOR REPLY'
DEBUG:pymodbus.transaction:Changing transaction state from 'WAITING FOR REPLY' to 'PROCESSING REPLY'
DEBUG:pymodbus.transaction:RECV: 0x1 0x3 0x10 0x1 0x81 0x1 0x23 0xf2 0x2 0x1 0x36 0x0 0x0 0x0 0x0 0x0 0x0 0x0 0x0 0x81 0xd1
DEBUG:pymodbus.framer.rtu_framer:Getting Frame - 0x3 0x10 0x1 0x81 0x1 0x23 0xf2 0x2 0x1 0x36 0x0 0x0 0x0 0x0 0x0 0x0 0x0 0x0
DEBUG:pymodbus.factory:Factory Response[ReadHoldingRegistersResponse: 3]
DEBUG:pymodbus.framer.rtu_framer:Frame advanced, resetting header!!
DEBUG:pymodbus.transaction:Adding transaction 1
DEBUG:pymodbus.transaction:Getting transaction 1
DEBUG:pymodbus.transaction:Changing transaction state from 'PROCESSING REPLY' to 'TRANSACTION_COMPLETE'
DEBUG:pymodbus.transaction:Current transaction state - TRANSACTION_COMPLETE
DEBUG:pymodbus.transaction:Running transaction 2
DEBUG:pymodbus.transaction:SEND: 0x1 0x3 0x0 0x40 0x0 0x8 0x45 0xd8
DEBUG:pymodbus.framer.rtu_framer:Changing state to IDLE - Last Frame End - 1605262248.521044, Current Time stamp - 1605262248.522041
DEBUG:pymodbus.client.sync:New Transaction state 'SENDING'
DEBUG:pymodbus.transaction:Changing transaction state from 'SENDING' to 'WAITING FOR REPLY'
DEBUG:pymodbus.transaction:Changing transaction state from 'WAITING FOR REPLY' to 'PROCESSING REPLY'
DEBUG:pymodbus.transaction:RECV: 0x1 0x3 0x10 0x1 0x81 0x1 0x1f 0xf2 0x2 0x1 0x13 0x0 0x0 0x0 0x0 0x0 0x0 0x0 0x0 0x77 0x7c
DEBUG:pymodbus.framer.rtu_framer:Getting Frame - 0x3 0x10 0x1 0x81 0x1 0x1f 0xf2 0x2 0x1 0x13 0x0 0x0 0x0 0x0 0x0 0x0 0x0 0x0
DEBUG:pymodbus.factory:Factory Response[ReadHoldingRegistersResponse: 3]
DEBUG:pymodbus.framer.rtu_framer:Frame advanced, resetting header!!
DEBUG:pymodbus.transaction:Adding transaction 1
DEBUG:pymodbus.transaction:Getting transaction 1
DEBUG:pymodbus.transaction:Changing transaction state from 'PROCESSING REPLY' to 'TRANSACTION_COMPLETE'
DEBUG:pymodbus.transaction:Current transaction state - TRANSACTION_COMPLETE
DEBUG:pymodbus.transaction:Running transaction 3
DEBUG:pymodbus.transaction:SEND: 0x1 0x3 0x0 0x80 0x0 0x8 0x45 0xe4
DEBUG:pymodbus.framer.rtu_framer:Changing state to IDLE - Last Frame End - 1605262248.532015, Current Time stamp - 1605262248.533015
DEBUG:pymodbus.client.sync:New Transaction state 'SENDING'
DEBUG:pymodbus.transaction:Changing transaction state from 'SENDING' to 'WAITING FOR REPLY'
DEBUG:pymodbus.transaction:Changing transaction state from 'WAITING FOR REPLY' to 'PROCESSING REPLY'
DEBUG:pymodbus.transaction:RECV: 0x1 0x3 0x10 0x1 0x81 0x1 0x42 0xf2 0x2 0x1 0x32 0x0 0x0 0x0 0x0 0x0 0x0 0x0 0x0 0x30 0x30
DEBUG:pymodbus.framer.rtu_framer:Getting Frame - 0x3 0x10 0x1 0x81 0x1 0x42 0xf2 0x2 0x1 0x32 0x0 0x0 0x0 0x0 0x0 0x0 0x0 0x0
DEBUG:pymodbus.factory:Factory Response[ReadHoldingRegistersResponse: 3]
DEBUG:pymodbus.framer.rtu_framer:Frame advanced, resetting header!!
DEBUG:pymodbus.transaction:Adding transaction 1
DEBUG:pymodbus.transaction:Getting transaction 1
DEBUG:pymodbus.transaction:Changing transaction state from 'PROCESSING REPLY' to 'TRANSACTION_COMPLETE'
DEBUG:pymodbus.transaction:Current transaction state - TRANSACTION_COMPLETE
DEBUG:pymodbus.transaction:Running transaction 4
DEBUG:pymodbus.transaction:SEND: 0x1 0x3 0x0 0xc0 0x0 0x8 0x44 0x30
DEBUG:pymodbus.framer.rtu_framer:Changing state to IDLE - Last Frame End - 1605262248.542986, Current Time stamp - 1605262248.542986
DEBUG:pymodbus.framer.rtu_framer:Waiting for 3.5 char before next send - 0 ms
DEBUG:pymodbus.client.sync:New Transaction state 'SENDING'
DEBUG:pymodbus.transaction:Changing transaction state from 'SENDING' to 'WAITING FOR REPLY'
DEBUG:pymodbus.transaction:Changing transaction state from 'WAITING FOR REPLY' to 'PROCESSING REPLY'
DEBUG:pymodbus.transaction:RECV: 0x1 0x3 0x10 0x0 0x0 0x0 0x0 0x0 0x0 0x0 0x0 0x0 0x0 0x0 0x0 0x0 0x0 0x0 0x0 0xe4 0x59
DEBUG:pymodbus.framer.rtu_framer:Getting Frame - 0x3 0x10 0x0 0x0 0x0 0x0 0x0 0x0 0x0 0x0 0x0 0x0 0x0 0x0 0x0 0x0 0x0 0x0
DEBUG:pymodbus.factory:Factory Response[ReadHoldingRegistersResponse: 3]
DEBUG:pymodbus.framer.rtu_framer:Frame advanced, resetting header!!
DEBUG:pymodbus.transaction:Adding transaction 1
DEBUG:pymodbus.transaction:Getting transaction 1
DEBUG:pymodbus.transaction:Changing transaction state from 'PROCESSING REPLY' to 'TRANSACTION_COMPLETE'
DEBUG:pymodbus.transaction:Current transaction state - IDLE
DEBUG:pymodbus.transaction:Running transaction 1
DEBUG:pymodbus.transaction:SEND: 0x1 0x3 0x0 0x0 0x0 0x8 0x44 0xc
DEBUG:pymodbus.client.sync:New Transaction state 'SENDING'
DEBUG:pymodbus.transaction:Changing transaction state from 'SENDING' to 'WAITING FOR REPLY'
DEBUG:pymodbus.transaction:Changing transaction state from 'WAITING FOR REPLY' to 'PROCESSING REPLY'
DEBUG:pymodbus.transaction:RECV: 0x1 0x3 0x10 0x82 0x83 0xff 0xf7 0xf2 0x2 0x1 0x32 0x0 0x0 0x0 0x0 0x0 0x0 0x0 0x0 0xde 0x6a
DEBUG:pymodbus.framer.rtu_framer:Getting Frame - 0x3 0x10 0x82 0x83 0xff 0xf7 0xf2 0x2 0x1 0x32 0x0 0x0 0x0 0x0 0x0 0x0 0x0 0x0
DEBUG:pymodbus.factory:Factory Response[ReadHoldingRegistersResponse: 3]
DEBUG:pymodbus.framer.rtu_framer:Frame advanced, resetting header!!
DEBUG:pymodbus.transaction:Adding transaction 1
DEBUG:pymodbus.transaction:Getting transaction 1
DEBUG:pymodbus.transaction:Changing transaction state from 'PROCESSING REPLY' to 'TRANSACTION_COMPLETE'
DEBUG:pymodbus.transaction:Current transaction state - TRANSACTION_COMPLETE
DEBUG:pymodbus.transaction:Running transaction 2
DEBUG:pymodbus.transaction:SEND: 0x1 0x3 0x0 0x40 0x0 0x8 0x45 0xd8
DEBUG:pymodbus.framer.rtu_framer:Changing state to IDLE - Last Frame End - 1605262248.581882, Current Time stamp - 1605262248.581882
DEBUG:pymodbus.framer.rtu_framer:Waiting for 3.5 char before next send - 0 ms
DEBUG:pymodbus.client.sync:New Transaction state 'SENDING'
DEBUG:pymodbus.transaction:Changing transaction state from 'SENDING' to 'WAITING FOR REPLY'
DEBUG:pymodbus.transaction:Changing transaction state from 'WAITING FOR REPLY' to 'PROCESSING REPLY'
DEBUG:pymodbus.transaction:RECV: 0x1 0x3 0x10 0x82 0x83 0x1 0x2 0xf2 0x2 0x1 0x40 0x0 0x0 0x0 0x0 0x0 0x0 0x0 0x0 0x11 0x2
DEBUG:pymodbus.framer.rtu_framer:Getting Frame - 0x3 0x10 0x82 0x83 0x1 0x2 0xf2 0x2 0x1 0x40 0x0 0x0 0x0 0x0 0x0 0x0 0x0 0x0
DEBUG:pymodbus.factory:Factory Response[ReadHoldingRegistersResponse: 3]
DEBUG:pymodbus.framer.rtu_framer:Frame advanced, resetting header!!
DEBUG:pymodbus.transaction:Adding transaction 1
DEBUG:pymodbus.transaction:Getting transaction 1
DEBUG:pymodbus.transaction:Changing transaction state from 'PROCESSING REPLY' to 'TRANSACTION_COMPLETE'
DEBUG:pymodbus.transaction:Current transaction state - TRANSACTION_COMPLETE
DEBUG:pymodbus.transaction:Running transaction 3
DEBUG:pymodbus.transaction:SEND: 0x1 0x3 0x0 0x80 0x0 0x8 0x45 0xe4
DEBUG:pymodbus.framer.rtu_framer:Changing state to IDLE - Last Frame End - 1605262248.592852, Current Time stamp - 1605262248.592852
DEBUG:pymodbus.framer.rtu_framer:Waiting for 3.5 char before next send - 0 ms
DEBUG:pymodbus.client.sync:New Transaction state 'SENDING'
DEBUG:pymodbus.transaction:Changing transaction state from 'SENDING' to 'WAITING FOR REPLY'
DEBUG:pymodbus.transaction:Changing transaction state from 'WAITING FOR REPLY' to 'PROCESSING REPLY'
DEBUG:pymodbus.transaction:RECV: 0x1 0x3 0x10 0x82 0x83 0x0 0xf6 0xf2 0x2 0x1 0x42 0x0 0x0 0x0 0x0 0x0 0x0 0x0 0x0 0x46 0xd6
DEBUG:pymodbus.framer.rtu_framer:Getting Frame - 0x3 0x10 0x82 0x83 0x0 0xf6 0xf2 0x2 0x1 0x42 0x0 0x0 0x0 0x0 0x0 0x0 0x0 0x0
DEBUG:pymodbus.factory:Factory Response[ReadHoldingRegistersResponse: 3]
DEBUG:pymodbus.framer.rtu_framer:Frame advanced, resetting header!!
DEBUG:pymodbus.transaction:Adding transaction 1
DEBUG:pymodbus.transaction:Getting transaction 1
DEBUG:pymodbus.transaction:Changing transaction state from 'PROCESSING REPLY' to 'TRANSACTION_COMPLETE'
DEBUG:pymodbus.transaction:Current transaction state - TRANSACTION_COMPLETE
DEBUG:pymodbus.transaction:Running transaction 4
DEBUG:pymodbus.transaction:SEND: 0x1 0x3 0x0 0xc0 0x0 0x8 0x44 0x30
DEBUG:pymodbus.framer.rtu_framer:Changing state to IDLE - Last Frame End - 1605262248.602834, Current Time stamp - 1605262248.603827
DEBUG:pymodbus.client.sync:New Transaction state 'SENDING'
DEBUG:pymodbus.transaction:Changing transaction state from 'SENDING' to 'WAITING FOR REPLY'
DEBUG:pymodbus.transaction:Changing transaction state from 'WAITING FOR REPLY' to 'PROCESSING REPLY'
DEBUG:pymodbus.transaction:RECV: 0x1 0x3 0x10 0x82 0x83 0x0 0xf5 0xf2 0x2 0x1 0x3b 0x0 0x0 0x0 0x0 0x0 0x0 0x0 0x0 0x4c 0x87
DEBUG:pymodbus.framer.rtu_framer:Getting Frame - 0x3 0x10 0x82 0x83 0x0 0xf5 0xf2 0x2 0x1 0x3b 0x0 0x0 0x0 0x0 0x0 0x0 0x0 0x0
DEBUG:pymodbus.factory:Factory Response[ReadHoldingRegistersResponse: 3]
DEBUG:pymodbus.framer.rtu_framer:Frame advanced, resetting header!!
DEBUG:pymodbus.transaction:Adding transaction 1
DEBUG:pymodbus.transaction:Getting transaction 1
DEBUG:pymodbus.transaction:Changing transaction state from 'PROCESSING REPLY' to 'TRANSACTION_COMPLETE'
DEBUG:pymodbus.transaction:Current transaction state - TRANSACTION_COMPLETE
DEBUG:pymodbus.transaction:Running transaction 5
DEBUG:pymodbus.transaction:SEND: 0x1 0x3 0x1 0x0 0x0 0x8 0x45 0xf0
DEBUG:pymodbus.framer.rtu_framer:Changing state to IDLE - Last Frame End - 1605262248.613842, Current Time stamp - 1605262248.613842
DEBUG:pymodbus.framer.rtu_framer:Waiting for 3.5 char before next send - 0 ms
DEBUG:pymodbus.client.sync:New Transaction state 'SENDING'
DEBUG:pymodbus.transaction:Changing transaction state from 'SENDING' to 'WAITING FOR REPLY'
DEBUG:pymodbus.transaction:Changing transaction state from 'WAITING FOR REPLY' to 'PROCESSING REPLY'
DEBUG:pymodbus.transaction:RECV: 0x1 0x3 0x10 0x82 0x83 0xff 0xf7 0xf2 0x2 0x1 0x3d 0x0 0x0 0x0 0x0 0x0 0x0 0x0 0x0 0x9f 0x9a
DEBUG:pymodbus.framer.rtu_framer:Getting Frame - 0x3 0x10 0x82 0x83 0xff 0xf7 0xf2 0x2 0x1 0x3d 0x0 0x0 0x0 0x0 0x0 0x0 0x0 0x0
DEBUG:pymodbus.factory:Factory Response[ReadHoldingRegistersResponse: 3]
DEBUG:pymodbus.framer.rtu_framer:Frame advanced, resetting header!!
DEBUG:pymodbus.transaction:Adding transaction 1
DEBUG:pymodbus.transaction:Getting transaction 1
DEBUG:pymodbus.transaction:Changing transaction state from 'PROCESSING REPLY' to 'TRANSACTION_COMPLETE'
DEBUG:pymodbus.transaction:Current transaction state - TRANSACTION_COMPLETE
DEBUG:pymodbus.transaction:Running transaction 6
DEBUG:pymodbus.transaction:SEND: 0x1 0x3 0x1 0x40 0x0 0x8 0x44 0x24
DEBUG:pymodbus.framer.rtu_framer:Changing state to IDLE - Last Frame End - 1605262248.627751, Current Time stamp - 1605262248.628121
DEBUG:pymodbus.client.sync:New Transaction state 'SENDING'
DEBUG:pymodbus.transaction:Changing transaction state from 'SENDING' to 'WAITING FOR REPLY'
DEBUG:pymodbus.transaction:Changing transaction state from 'WAITING FOR REPLY' to 'PROCESSING REPLY'
DEBUG:pymodbus.transaction:RECV: 0x1 0x3 0x10 0x1 0x81 0x1 0x47 0xf2 0x2 0x1 0x33 0x0 0x0 0x0 0x0 0x0 0x0 0x0 0x0 0x31 0xa5
DEBUG:pymodbus.framer.rtu_framer:Getting Frame - 0x3 0x10 0x1 0x81 0x1 0x47 0xf2 0x2 0x1 0x33 0x0 0x0 0x0 0x0 0x0 0x0 0x0 0x0
DEBUG:pymodbus.factory:Factory Response[ReadHoldingRegistersResponse: 3]
DEBUG:pymodbus.framer.rtu_framer:Frame advanced, resetting header!!
DEBUG:pymodbus.transaction:Adding transaction 1
DEBUG:pymodbus.transaction:Getting transaction 1
DEBUG:pymodbus.transaction:Changing transaction state from 'PROCESSING REPLY' to 'TRANSACTION_COMPLETE'
DEBUG:pymodbus.transaction:Current transaction state - TRANSACTION_COMPLETE
DEBUG:pymodbus.transaction:Running transaction 7
DEBUG:pymodbus.transaction:SEND: 0x1 0x3 0x1 0x80 0x0 0x8 0x44 0x18
DEBUG:pymodbus.framer.rtu_framer:Changing state to IDLE - Last Frame End - 1605262248.638144, Current Time stamp - 1605262248.638144
DEBUG:pymodbus.framer.rtu_framer:Waiting for 3.5 char before next send - 0 ms
DEBUG:pymodbus.client.sync:New Transaction state 'SENDING'
DEBUG:pymodbus.transaction:Changing transaction state from 'SENDING' to 'WAITING FOR REPLY'
DEBUG:pymodbus.transaction:Changing transaction state from 'WAITING FOR REPLY' to 'PROCESSING REPLY'
DEBUG:pymodbus.transaction:RECV: 0x1 0x3 0x10 0x1 0x81 0x1 0x76 0xf2 0x2 0x1 0x31 0x0 0x0 0x0 0x0 0x0 0x0 0x0 0x0 0x6b 0xb4
DEBUG:pymodbus.framer.rtu_framer:Getting Frame - 0x3 0x10 0x1 0x81 0x1 0x76 0xf2 0x2 0x1 0x31 0x0 0x0 0x0 0x0 0x0 0x0 0x0 0x0
DEBUG:pymodbus.factory:Factory Response[ReadHoldingRegistersResponse: 3]
DEBUG:pymodbus.framer.rtu_framer:Frame advanced, resetting header!!
DEBUG:pymodbus.transaction:Adding transaction 1
DEBUG:pymodbus.transaction:Getting transaction 1
DEBUG:pymodbus.transaction:Changing transaction state from 'PROCESSING REPLY' to 'TRANSACTION_COMPLETE'
DEBUG:pymodbus.transaction:Current transaction state - TRANSACTION_COMPLETE
DEBUG:pymodbus.transaction:Running transaction 8
DEBUG:pymodbus.transaction:SEND: 0x1 0x3 0x1 0xc0 0x0 0x8 0x45 0xcc
DEBUG:pymodbus.framer.rtu_framer:Changing state to IDLE - Last Frame End - 1605262248.648125, Current Time stamp - 1605262248.649115
DEBUG:pymodbus.client.sync:New Transaction state 'SENDING'
DEBUG:pymodbus.transaction:Changing transaction state from 'SENDING' to 'WAITING FOR REPLY'
DEBUG:pymodbus.transaction:Changing transaction state from 'WAITING FOR REPLY' to 'PROCESSING REPLY'
DEBUG:pymodbus.transaction:RECV: 0x1 0x3 0x10 0x1 0x81 0x1 0x1a 0xf2 0x2 0x1 0x30 0x0 0x0 0x0 0x0 0x0 0x0 0x0 0x0 0xf6 0x48
DEBUG:pymodbus.framer.rtu_framer:Getting Frame - 0x3 0x10 0x1 0x81 0x1 0x1a 0xf2 0x2 0x1 0x30 0x0 0x0 0x0 0x0 0x0 0x0 0x0 0x0
DEBUG:pymodbus.factory:Factory Response[ReadHoldingRegistersResponse: 3]
DEBUG:pymodbus.framer.rtu_framer:Frame advanced, resetting header!!
DEBUG:pymodbus.transaction:Adding transaction 1
DEBUG:pymodbus.transaction:Getting transaction 1
DEBUG:pymodbus.transaction:Changing transaction state from 'PROCESSING REPLY' to 'TRANSACTION_COMPLETE'
DEBUG:pymodbus.transaction:Current transaction state - TRANSACTION_COMPLETE
DEBUG:pymodbus.transaction:Running transaction 9
DEBUG:pymodbus.transaction:SEND: 0x1 0x3 0x2 0x0 0x0 0x8 0x45 0xb4
DEBUG:pymodbus.framer.rtu_framer:Changing state to IDLE - Last Frame End - 1605262248.659117, Current Time stamp - 1605262248.660115
DEBUG:pymodbus.client.sync:New Transaction state 'SENDING'
DEBUG:pymodbus.transaction:Changing transaction state from 'SENDING' to 'WAITING FOR REPLY'
DEBUG:pymodbus.transaction:Changing transaction state from 'WAITING FOR REPLY' to 'PROCESSING REPLY'
DEBUG:pymodbus.transaction:RECV: 0x1 0x3 0x10 0x1 0x81 0x1 0x63 0xf2 0x2 0x1 0x31 0x0 0x0 0x0 0x0 0x0 0x0 0x0 0x0 0x59 0x21
DEBUG:pymodbus.framer.rtu_framer:Getting Frame - 0x3 0x10 0x1 0x81 0x1 0x63 0xf2 0x2 0x1 0x31 0x0 0x0 0x0 0x0 0x0 0x0 0x0 0x0
DEBUG:pymodbus.factory:Factory Response[ReadHoldingRegistersResponse: 3]
DEBUG:pymodbus.framer.rtu_framer:Frame advanced, resetting header!!
DEBUG:pymodbus.transaction:Adding transaction 1
DEBUG:pymodbus.transaction:Getting transaction 1
DEBUG:pymodbus.transaction:Changing transaction state from 'PROCESSING REPLY' to 'TRANSACTION_COMPLETE'
DEBUG:pymodbus.transaction:Current transaction state - TRANSACTION_COMPLETE
DEBUG:pymodbus.transaction:Running transaction 10
DEBUG:pymodbus.transaction:SEND: 0x1 0x3 0x2 0x40 0x0 0x8 0x44 0x60
DEBUG:pymodbus.framer.rtu_framer:Changing state to IDLE - Last Frame End - 1605262248.669123, Current Time stamp - 1605262248.670119
DEBUG:pymodbus.client.sync:New Transaction state 'SENDING'
DEBUG:pymodbus.transaction:Changing transaction state from 'SENDING' to 'WAITING FOR REPLY'
DEBUG:pymodbus.transaction:Changing transaction state from 'WAITING FOR REPLY' to 'PROCESSING REPLY'
DEBUG:pymodbus.transaction:RECV: 0x1 0x3 0x10 0x0 0x0 0x0 0x0 0x0 0x0 0x0 0x0 0x0 0x0 0x0 0x0 0x0 0x0 0x0 0x0 0xe4 0x59
DEBUG:pymodbus.framer.rtu_framer:Getting Frame - 0x3 0x10 0x0 0x0 0x0 0x0 0x0 0x0 0x0 0x0 0x0 0x0 0x0 0x0 0x0 0x0 0x0 0x0
DEBUG:pymodbus.factory:Factory Response[ReadHoldingRegistersResponse: 3]
DEBUG:pymodbus.framer.rtu_framer:Frame advanced, resetting header!!
DEBUG:pymodbus.transaction:Adding transaction 1
DEBUG:pymodbus.transaction:Getting transaction 1
DEBUG:pymodbus.transaction:Changing transaction state from 'PROCESSING REPLY' to 'TRANSACTION_COMPLETE'
DEBUG:pymodbus.transaction:Current transaction state - TRANSACTION_COMPLETE
DEBUG:pymodbus.transaction:Running transaction 11
DEBUG:pymodbus.transaction:SEND: 0x1 0x3 0x2 0x80 0x0 0x8 0x44 0x5c
DEBUG:pymodbus.framer.rtu_framer:Changing state to IDLE - Last Frame End - 1605262248.681091, Current Time stamp - 1605262248.68807
DEBUG:pymodbus.client.sync:New Transaction state 'SENDING'
DEBUG:pymodbus.transaction:Changing transaction state from 'SENDING' to 'WAITING FOR REPLY'
DEBUG:pymodbus.transaction:Changing transaction state from 'WAITING FOR REPLY' to 'PROCESSING REPLY'
DEBUG:pymodbus.transaction:RECV: 0x1 0x3 0x10 0x1 0x81 0x0 0xc2 0xf2 0x2 0x1 0x30 0x0 0x0 0x0 0x0 0x0 0x0 0x0 0x0 0xd6 0x50
DEBUG:pymodbus.framer.rtu_framer:Getting Frame - 0x3 0x10 0x1 0x81 0x0 0xc2 0xf2 0x2 0x1 0x30 0x0 0x0 0x0 0x0 0x0 0x0 0x0 0x0
DEBUG:pymodbus.factory:Factory Response[ReadHoldingRegistersResponse: 3]
DEBUG:pymodbus.framer.rtu_framer:Frame advanced, resetting header!!
DEBUG:pymodbus.transaction:Adding transaction 1
DEBUG:pymodbus.transaction:Getting transaction 1
DEBUG:pymodbus.transaction:Changing transaction state from 'PROCESSING REPLY' to 'TRANSACTION_COMPLETE'
DEBUG:pymodbus.transaction:Current transaction state - TRANSACTION_COMPLETE
DEBUG:pymodbus.transaction:Running transaction 12
DEBUG:pymodbus.transaction:SEND: 0x1 0x3 0x2 0xc0 0x0 0x8 0x45 0x88
DEBUG:pymodbus.framer.rtu_framer:Changing state to IDLE - Last Frame End - 1605262248.699043, Current Time stamp - 1605262248.70001
DEBUG:pymodbus.client.sync:New Transaction state 'SENDING'
DEBUG:pymodbus.transaction:Changing transaction state from 'SENDING' to 'WAITING FOR REPLY'
DEBUG:pymodbus.transaction:Changing transaction state from 'WAITING FOR REPLY' to 'PROCESSING REPLY'
DEBUG:pymodbus.transaction:RECV: 0x1 0x3 0x10 0x1 0x81 0x1 0x76 0xf2 0x2 0x1 0x3e 0x0 0x0 0x0 0x0 0x0 0x0 0x0 0x0 0x2a 0x44
DEBUG:pymodbus.framer.rtu_framer:Getting Frame - 0x3 0x10 0x1 0x81 0x1 0x76 0xf2 0x2 0x1 0x3e 0x0 0x0 0x0 0x0 0x0 0x0 0x0 0x0
DEBUG:pymodbus.factory:Factory Response[ReadHoldingRegistersResponse: 3]
DEBUG:pymodbus.framer.rtu_framer:Frame advanced, resetting header!!
DEBUG:pymodbus.transaction:Adding transaction 1
DEBUG:pymodbus.transaction:Getting transaction 1
DEBUG:pymodbus.transaction:Changing transaction state from 'PROCESSING REPLY' to 'TRANSACTION_COMPLETE'
DEBUG:pymodbus.transaction:Current transaction state - TRANSACTION_COMPLETE
DEBUG:pymodbus.transaction:Running transaction 13
DEBUG:pymodbus.transaction:SEND: 0x1 0x3 0x3 0x0 0x0 0x8 0x44 0x48
DEBUG:pymodbus.framer.rtu_framer:Changing state to IDLE - Last Frame End - 1605262248.70902, Current Time stamp - 1605262248.709979
DEBUG:pymodbus.client.sync:New Transaction state 'SENDING'
DEBUG:pymodbus.transaction:Changing transaction state from 'SENDING' to 'WAITING FOR REPLY'
DEBUG:pymodbus.transaction:Changing transaction state from 'WAITING FOR REPLY' to 'PROCESSING REPLY'
DEBUG:pymodbus.transaction:RECV: 0x1 0x3 0x10 0x1 0x81 0x0 0xbc 0xf2 0x2 0x1 0x37 0x0 0x0 0x0 0x0 0x0 0x0 0x0 0x0 0x59 0xde
DEBUG:pymodbus.framer.rtu_framer:Getting Frame - 0x3 0x10 0x1 0x81 0x0 0xbc 0xf2 0x2 0x1 0x37 0x0 0x0 0x0 0x0 0x0 0x0 0x0 0x0
DEBUG:pymodbus.factory:Factory Response[ReadHoldingRegistersResponse: 3]
DEBUG:pymodbus.framer.rtu_framer:Frame advanced, resetting header!!
DEBUG:pymodbus.transaction:Adding transaction 1
DEBUG:pymodbus.transaction:Getting transaction 1
DEBUG:pymodbus.transaction:Changing transaction state from 'PROCESSING REPLY' to 'TRANSACTION_COMPLETE'
DEBUG:pymodbus.transaction:Current transaction state - TRANSACTION_COMPLETE
DEBUG:pymodbus.transaction:Running transaction 14
DEBUG:pymodbus.transaction:SEND: 0x1 0x3 0x3 0x40 0x0 0x8 0x45 0x9c
DEBUG:pymodbus.framer.rtu_framer:Changing state to IDLE - Last Frame End - 1605262248.71998, Current Time stamp - 1605262248.71998
DEBUG:pymodbus.framer.rtu_framer:Waiting for 3.5 char before next send - 0 ms
DEBUG:pymodbus.client.sync:New Transaction state 'SENDING'
DEBUG:pymodbus.transaction:Changing transaction state from 'SENDING' to 'WAITING FOR REPLY'
DEBUG:pymodbus.transaction:Changing transaction state from 'WAITING FOR REPLY' to 'PROCESSING REPLY'
DEBUG:pymodbus.transaction:RECV: 0x1 0x3 0x10 0x1 0x81 0x1 0x8b 0xf2 0x2 0x1 0x2e 0x0 0x0 0x0 0x0 0x0 0x0 0x0 0x0 0xb4 0x38
DEBUG:pymodbus.framer.rtu_framer:Getting Frame - 0x3 0x10 0x1 0x81 0x1 0x8b 0xf2 0x2 0x1 0x2e 0x0 0x0 0x0 0x0 0x0 0x0 0x0 0x0
DEBUG:pymodbus.factory:Factory Response[ReadHoldingRegistersResponse: 3]
DEBUG:pymodbus.framer.rtu_framer:Frame advanced, resetting header!!
DEBUG:pymodbus.transaction:Adding transaction 1
DEBUG:pymodbus.transaction:Getting transaction 1
DEBUG:pymodbus.transaction:Changing transaction state from 'PROCESSING REPLY' to 'TRANSACTION_COMPLETE'
DEBUG:pymodbus.transaction:Current transaction state - IDLE
DEBUG:pymodbus.transaction:Running transaction 1
DEBUG:pymodbus.transaction:SEND: 0x1 0x3 0x0 0x0 0x0 0x8 0x44 0xc
DEBUG:pymodbus.client.sync:New Transaction state 'SENDING'
DEBUG:pymodbus.transaction:Changing transaction state from 'SENDING' to 'WAITING FOR REPLY'
DEBUG:pymodbus.transaction:Changing transaction state from 'WAITING FOR REPLY' to 'PROCESSING REPLY'
DEBUG:pymodbus.transaction:RECV: 0x1 0x3 0x10 0x1 0x81 0x1 0x31 0xf2 0x2 0x1 0x4b 0x0 0x0 0x0 0x0 0x0 0x0 0x0 0x0 0x85 0x51
DEBUG:pymodbus.framer.rtu_framer:Getting Frame - 0x3 0x10 0x1 0x81 0x1 0x31 0xf2 0x2 0x1 0x4b 0x0 0x0 0x0 0x0 0x0 0x0 0x0 0x0
DEBUG:pymodbus.factory:Factory Response[ReadHoldingRegistersResponse: 3]
DEBUG:pymodbus.framer.rtu_framer:Frame advanced, resetting header!!
DEBUG:pymodbus.transaction:Adding transaction 1
DEBUG:pymodbus.transaction:Getting transaction 1
DEBUG:pymodbus.transaction:Changing transaction state from 'PROCESSING REPLY' to 'TRANSACTION_COMPLETE'
DEBUG:pymodbus.transaction:Current transaction state - TRANSACTION_COMPLETE
DEBUG:pymodbus.transaction:Running transaction 2
DEBUG:pymodbus.transaction:SEND: 0x1 0x3 0x0 0x40 0x0 0x8 0x45 0xd8
DEBUG:pymodbus.framer.rtu_framer:Changing state to IDLE - Last Frame End - 1605262248.758044, Current Time stamp - 1605262248.758044
DEBUG:pymodbus.framer.rtu_framer:Waiting for 3.5 char before next send - 0 ms
DEBUG:pymodbus.client.sync:New Transaction state 'SENDING'
DEBUG:pymodbus.transaction:Changing transaction state from 'SENDING' to 'WAITING FOR REPLY'
DEBUG:pymodbus.transaction:Changing transaction state from 'WAITING FOR REPLY' to 'PROCESSING REPLY'
DEBUG:pymodbus.transaction:RECV: 0x1 0x3 0x10 0x1 0x81 0x1 0x67 0xf2 0x2 0x1 0x36 0x0 0x0 0x0 0x0 0x0 0x0 0x0 0x0 0x71 0x95
DEBUG:pymodbus.framer.rtu_framer:Getting Frame - 0x3 0x10 0x1 0x81 0x1 0x67 0xf2 0x2 0x1 0x36 0x0 0x0 0x0 0x0 0x0 0x0 0x0 0x0
DEBUG:pymodbus.factory:Factory Response[ReadHoldingRegistersResponse: 3]
DEBUG:pymodbus.framer.rtu_framer:Frame advanced, resetting header!!
DEBUG:pymodbus.transaction:Adding transaction 1
DEBUG:pymodbus.transaction:Getting transaction 1
DEBUG:pymodbus.transaction:Changing transaction state from 'PROCESSING REPLY' to 'TRANSACTION_COMPLETE'
DEBUG:pymodbus.transaction:Current transaction state - TRANSACTION_COMPLETE
DEBUG:pymodbus.transaction:Running transaction 3
DEBUG:pymodbus.transaction:SEND: 0x1 0x3 0x0 0x80 0x0 0x8 0x45 0xe4
DEBUG:pymodbus.framer.rtu_framer:Changing state to IDLE - Last Frame End - 1605262248.771999, Current Time stamp - 1605262248.771999
DEBUG:pymodbus.framer.rtu_framer:Waiting for 3.5 char before next send - 0 ms
DEBUG:pymodbus.client.sync:New Transaction state 'SENDING'
DEBUG:pymodbus.transaction:Changing transaction state from 'SENDING' to 'WAITING FOR REPLY'
DEBUG:pymodbus.transaction:Changing transaction state from 'WAITING FOR REPLY' to 'PROCESSING REPLY'
DEBUG:pymodbus.transaction:RECV: 0x1 0x3 0x10 0x1 0x81 0x1 0x59 0xf2 0x2 0x1 0x45 0x0 0x0 0x0 0x0 0x0 0x0 0x0 0x0 0x57 0xd9
DEBUG:pymodbus.framer.rtu_framer:Getting Frame - 0x3 0x10 0x1 0x81 0x1 0x59 0xf2 0x2 0x1 0x45 0x0 0x0 0x0 0x0 0x0 0x0 0x0 0x0
DEBUG:pymodbus.factory:Factory Response[ReadHoldingRegistersResponse: 3]
DEBUG:pymodbus.framer.rtu_framer:Frame advanced, resetting header!!
DEBUG:pymodbus.transaction:Adding transaction 1
DEBUG:pymodbus.transaction:Getting transaction 1
DEBUG:pymodbus.transaction:Changing transaction state from 'PROCESSING REPLY' to 'TRANSACTION_COMPLETE'
DEBUG:pymodbus.transaction:Current transaction state - TRANSACTION_COMPLETE
DEBUG:pymodbus.transaction:Running transaction 4
DEBUG:pymodbus.transaction:SEND: 0x1 0x3 0x0 0xc0 0x0 0x8 0x44 0x30
DEBUG:pymodbus.framer.rtu_framer:Changing state to IDLE - Last Frame End - 1605262248.790945, Current Time stamp - 1605262248.790945
DEBUG:pymodbus.framer.rtu_framer:Waiting for 3.5 char before next send - 0 ms
DEBUG:pymodbus.client.sync:New Transaction state 'SENDING'
DEBUG:pymodbus.transaction:Changing transaction state from 'SENDING' to 'WAITING FOR REPLY'
DEBUG:pymodbus.transaction:Changing transaction state from 'WAITING FOR REPLY' to 'PROCESSING REPLY'
DEBUG:pymodbus.transaction:RECV: 0x1 0x3 0x10 0x1 0x81 0x1 0x3c 0xf2 0x2 0x1 0x31 0x0 0x0 0x0 0x0 0x0 0x0 0x0 0x0 0x8d 0x7e
DEBUG:pymodbus.framer.rtu_framer:Getting Frame - 0x3 0x10 0x1 0x81 0x1 0x3c 0xf2 0x2 0x1 0x31 0x0 0x0 0x0 0x0 0x0 0x0 0x0 0x0
DEBUG:pymodbus.factory:Factory Response[ReadHoldingRegistersResponse: 3]
DEBUG:pymodbus.framer.rtu_framer:Frame advanced, resetting header!!
DEBUG:pymodbus.transaction:Adding transaction 1
DEBUG:pymodbus.transaction:Getting transaction 1
DEBUG:pymodbus.transaction:Changing transaction state from 'PROCESSING REPLY' to 'TRANSACTION_COMPLETE'
DEBUG:pymodbus.transaction:Current transaction state - TRANSACTION_COMPLETE
DEBUG:pymodbus.transaction:Running transaction 5
DEBUG:pymodbus.transaction:SEND: 0x1 0x3 0x1 0x0 0x0 0x8 0x45 0xf0
DEBUG:pymodbus.framer.rtu_framer:Changing state to IDLE - Last Frame End - 1605262248.800919, Current Time stamp - 1605262248.801916
DEBUG:pymodbus.client.sync:New Transaction state 'SENDING'
DEBUG:pymodbus.transaction:Changing transaction state from 'SENDING' to 'WAITING FOR REPLY'
DEBUG:pymodbus.transaction:Changing transaction state from 'WAITING FOR REPLY' to 'PROCESSING REPLY'
DEBUG:pymodbus.transaction:RECV: 0x1 0x3 0x10 0x1 0x81 0x1 0x5 0x2 0x1 0x1 0x6a 0xf2 0x2 0x1 0x58 0x0 0x0 0x0 0x0 0x9f 0x70
DEBUG:pymodbus.framer.rtu_framer:Getting Frame - 0x3 0x10 0x1 0x81 0x1 0x5 0x2 0x1 0x1 0x6a 0xf2 0x2 0x1 0x58 0x0 0x0 0x0 0x0
DEBUG:pymodbus.factory:Factory Response[ReadHoldingRegistersResponse: 3]
DEBUG:pymodbus.framer.rtu_framer:Frame advanced, resetting header!!
DEBUG:pymodbus.transaction:Adding transaction 1
DEBUG:pymodbus.transaction:Getting transaction 1
DEBUG:pymodbus.transaction:Changing transaction state from 'PROCESSING REPLY' to 'TRANSACTION_COMPLETE'
DEBUG:pymodbus.transaction:Current transaction state - IDLE
DEBUG:pymodbus.transaction:Running transaction 1
DEBUG:pymodbus.transaction:SEND: 0x1 0x3 0x0 0x0 0x0 0x8 0x44 0xc
DEBUG:pymodbus.client.sync:New Transaction state 'SENDING'
DEBUG:pymodbus.transaction:Changing transaction state from 'SENDING' to 'WAITING FOR REPLY'
DEBUG:pymodbus.transaction:Changing transaction state from 'WAITING FOR REPLY' to 'PROCESSING REPLY'
DEBUG:pymodbus.transaction:RECV: 0x1 0x3 0x10 0xc0 0x3 0x34 0x3f 0xc1 0x3 0x26 0x95 0xc2 0x3 0x12 0x9c 0xc3 0x3 0xf 0xa0 0xb0 0xcd
DEBUG:pymodbus.framer.rtu_framer:Getting Frame - 0x3 0x10 0xc0 0x3 0x34 0x3f 0xc1 0x3 0x26 0x95 0xc2 0x3 0x12 0x9c 0xc3 0x3 0xf 0xa0
DEBUG:pymodbus.factory:Factory Response[ReadHoldingRegistersResponse: 3]
DEBUG:pymodbus.framer.rtu_framer:Frame advanced, resetting header!!
DEBUG:pymodbus.transaction:Adding transaction 1
DEBUG:pymodbus.transaction:Getting transaction 1
DEBUG:pymodbus.transaction:Changing transaction state from 'PROCESSING REPLY' to 'TRANSACTION_COMPLETE'
DEBUG:pymodbus.transaction:Current transaction state - TRANSACTION_COMPLETE
DEBUG:pymodbus.transaction:Running transaction 2
DEBUG:pymodbus.transaction:SEND: 0x1 0x3 0x0 0x40 0x0 0x8 0x45 0xd8
DEBUG:pymodbus.framer.rtu_framer:Changing state to IDLE - Last Frame End - 1605262248.835508, Current Time stamp - 1605262248.851807
DEBUG:pymodbus.client.sync:New Transaction state 'SENDING'
DEBUG:pymodbus.transaction:Changing transaction state from 'SENDING' to 'WAITING FOR REPLY'
DEBUG:pymodbus.transaction:Changing transaction state from 'WAITING FOR REPLY' to 'PROCESSING REPLY'
DEBUG:pymodbus.transaction:RECV: 0x1 0x3 0x10 0x0 0x0 0x0 0x0 0x0 0x0 0x0 0x0 0x0 0x0 0x0 0x0 0x0 0x0 0x0 0x0 0xe4 0x59
DEBUG:pymodbus.framer.rtu_framer:Getting Frame - 0x3 0x10 0x0 0x0 0x0 0x0 0x0 0x0 0x0 0x0 0x0 0x0 0x0 0x0 0x0 0x0 0x0 0x0
DEBUG:pymodbus.factory:Factory Response[ReadHoldingRegistersResponse: 3]
DEBUG:pymodbus.framer.rtu_framer:Frame advanced, resetting header!!
DEBUG:pymodbus.transaction:Adding transaction 1
DEBUG:pymodbus.transaction:Getting transaction 1
DEBUG:pymodbus.transaction:Changing transaction state from 'PROCESSING REPLY' to 'TRANSACTION_COMPLETE'
DEBUG:pymodbus.transaction:Current transaction state - TRANSACTION_COMPLETE
DEBUG:pymodbus.transaction:Running transaction 3
DEBUG:pymodbus.transaction:SEND: 0x1 0x3 0x0 0x80 0x0 0x8 0x45 0xe4
DEBUG:pymodbus.framer.rtu_framer:Changing state to IDLE - Last Frame End - 1605262248.864056, Current Time stamp - 1605262248.871036
DEBUG:pymodbus.client.sync:New Transaction state 'SENDING'
DEBUG:pymodbus.transaction:Changing transaction state from 'SENDING' to 'WAITING FOR REPLY'
DEBUG:pymodbus.transaction:Changing transaction state from 'WAITING FOR REPLY' to 'PROCESSING REPLY'
DEBUG:pymodbus.transaction:RECV: 0x1 0x3 0x10 0x0 0x0 0x0 0x0 0x0 0x0 0x0 0x0 0x0 0x0 0x0 0x0 0x0 0x0 0x0 0x0 0xe4 0x59
DEBUG:pymodbus.framer.rtu_framer:Getting Frame - 0x3 0x10 0x0 0x0 0x0 0x0 0x0 0x0 0x0 0x0 0x0 0x0 0x0 0x0 0x0 0x0 0x0 0x0
DEBUG:pymodbus.factory:Factory Response[ReadHoldingRegistersResponse: 3]
DEBUG:pymodbus.framer.rtu_framer:Frame advanced, resetting header!!
DEBUG:pymodbus.transaction:Adding transaction 1
DEBUG:pymodbus.transaction:Getting transaction 1
DEBUG:pymodbus.transaction:Changing transaction state from 'PROCESSING REPLY' to 'TRANSACTION_COMPLETE'
DEBUG:pymodbus.transaction:Current transaction state - IDLE
DEBUG:pymodbus.transaction:Running transaction 1
DEBUG:pymodbus.transaction:SEND: 0x1 0x3 0x0 0x0 0x0 0x8 0x44 0xc
DEBUG:pymodbus.client.sync:New Transaction state 'SENDING'
DEBUG:pymodbus.transaction:Changing transaction state from 'SENDING' to 'WAITING FOR REPLY'
DEBUG:pymodbus.transaction:Changing transaction state from 'WAITING FOR REPLY' to 'PROCESSING REPLY'
DEBUG:pymodbus.transaction:RECV: 0x1 0x3 0x10 0xc0 0x3 0x34 0xf3 0xc1 0x3 0x24 0x83 0xc2 0x3 0xf 0xa0 0xc3 0x3 0x34 0x7d 0x67 0x4b
DEBUG:pymodbus.framer.rtu_framer:Getting Frame - 0x3 0x10 0xc0 0x3 0x34 0xf3 0xc1 0x3 0x24 0x83 0xc2 0x3 0xf 0xa0 0xc3 0x3 0x34 0x7d
DEBUG:pymodbus.factory:Factory Response[ReadHoldingRegistersResponse: 3]
DEBUG:pymodbus.framer.rtu_framer:Frame advanced, resetting header!!
DEBUG:pymodbus.transaction:Adding transaction 1
DEBUG:pymodbus.transaction:Getting transaction 1
DEBUG:pymodbus.transaction:Changing transaction state from 'PROCESSING REPLY' to 'TRANSACTION_COMPLETE'
DEBUG:pymodbus.transaction:Current transaction state - TRANSACTION_COMPLETE
DEBUG:pymodbus.transaction:Running transaction 2
DEBUG:pymodbus.transaction:SEND: 0x1 0x3 0x0 0x40 0x0 0x8 0x45 0xd8
DEBUG:pymodbus.framer.rtu_framer:Changing state to IDLE - Last Frame End - 1605262248.910841, Current Time stamp - 1605262248.914843
DEBUG:pymodbus.client.sync:New Transaction state 'SENDING'
DEBUG:pymodbus.transaction:Changing transaction state from 'SENDING' to 'WAITING FOR REPLY'
DEBUG:pymodbus.transaction:Changing transaction state from 'WAITING FOR REPLY' to 'PROCESSING REPLY'
DEBUG:pymodbus.transaction:RECV: 0x1 0x3 0x10 0x0 0x0 0x0 0x0 0x0 0x0 0x0 0x0 0x0 0x0 0x0 0x0 0x0 0x0 0x0 0x0 0xe4 0x59
DEBUG:pymodbus.framer.rtu_framer:Getting Frame - 0x3 0x10 0x0 0x0 0x0 0x0 0x0 0x0 0x0 0x0 0x0 0x0 0x0 0x0 0x0 0x0 0x0 0x0
DEBUG:pymodbus.factory:Factory Response[ReadHoldingRegistersResponse: 3]
DEBUG:pymodbus.framer.rtu_framer:Frame advanced, resetting header!!
DEBUG:pymodbus.transaction:Adding transaction 1
DEBUG:pymodbus.transaction:Getting transaction 1
DEBUG:pymodbus.transaction:Changing transaction state from 'PROCESSING REPLY' to 'TRANSACTION_COMPLETE'
DEBUG:pymodbus.transaction:Current transaction state - TRANSACTION_COMPLETE
DEBUG:pymodbus.transaction:Running transaction 3
DEBUG:pymodbus.transaction:SEND: 0x1 0x3 0x0 0x80 0x0 0x8 0x45 0xe4
DEBUG:pymodbus.framer.rtu_framer:Changing state to IDLE - Last Frame End - 1605262248.925211, Current Time stamp - 1605262248.928848
DEBUG:pymodbus.client.sync:New Transaction state 'SENDING'
DEBUG:pymodbus.transaction:Changing transaction state from 'SENDING' to 'WAITING FOR REPLY'
DEBUG:pymodbus.transaction:Changing transaction state from 'WAITING FOR REPLY' to 'PROCESSING REPLY'
DEBUG:pymodbus.transaction:RECV: 0x1 0x3 0x10 0x0 0x0 0x0 0x0 0x0 0x0 0x0 0x0 0x0 0x0 0x0 0x0 0x0 0x0 0x0 0x0 0xe4 0x59
DEBUG:pymodbus.framer.rtu_framer:Getting Frame - 0x3 0x10 0x0 0x0 0x0 0x0 0x0 0x0 0x0 0x0 0x0 0x0 0x0 0x0 0x0 0x0 0x0 0x0
DEBUG:pymodbus.factory:Factory Response[ReadHoldingRegistersResponse: 3]
DEBUG:pymodbus.framer.rtu_framer:Frame advanced, resetting header!!
DEBUG:pymodbus.transaction:Adding transaction 1
DEBUG:pymodbus.transaction:Getting transaction 1
DEBUG:pymodbus.transaction:Changing transaction state from 'PROCESSING REPLY' to 'TRANSACTION_COMPLETE'
DEBUG:pymodbus.transaction:Current transaction state - TRANSACTION_COMPLETE
DEBUG:pymodbus.transaction:Running transaction 4
DEBUG:pymodbus.transaction:SEND: 0x1 0x3 0x0 0xc0 0x0 0x8 0x44 0x30
DEBUG:pymodbus.framer.rtu_framer:Changing state to IDLE - Last Frame End - 1605262248.938962, Current Time stamp - 1605262248.941953
DEBUG:pymodbus.client.sync:New Transaction state 'SENDING'
DEBUG:pymodbus.transaction:Changing transaction state from 'SENDING' to 'WAITING FOR REPLY'
DEBUG:pymodbus.transaction:Changing transaction state from 'WAITING FOR REPLY' to 'PROCESSING REPLY'
DEBUG:pymodbus.transaction:RECV: 0x1 0x3 0x10 0x0 0x0 0x0 0x0 0x0 0x0 0x0 0x0 0x0 0x0 0x0 0x0 0x0 0x0 0x0 0x0 0xe4 0x59
DEBUG:pymodbus.framer.rtu_framer:Getting Frame - 0x3 0x10 0x0 0x0 0x0 0x0 0x0 0x0 0x0 0x0 0x0 0x0 0x0 0x0 0x0 0x0 0x0 0x0
DEBUG:pymodbus.factory:Factory Response[ReadHoldingRegistersResponse: 3]
DEBUG:pymodbus.framer.rtu_framer:Frame advanced, resetting header!!
DEBUG:pymodbus.transaction:Adding transaction 1
DEBUG:pymodbus.transaction:Getting transaction 1
DEBUG:pymodbus.transaction:Changing transaction state from 'PROCESSING REPLY' to 'TRANSACTION_COMPLETE'
DEBUG:pymodbus.transaction:Current transaction state - TRANSACTION_COMPLETE
DEBUG:pymodbus.transaction:Running transaction 5
DEBUG:pymodbus.transaction:SEND: 0x1 0x3 0x1 0x0 0x0 0x8 0x45 0xf0
DEBUG:pymodbus.framer.rtu_framer:Changing state to IDLE - Last Frame End - 1605262248.951964, Current Time stamp - 1605262248.954955
DEBUG:pymodbus.client.sync:New Transaction state 'SENDING'
DEBUG:pymodbus.transaction:Changing transaction state from 'SENDING' to 'WAITING FOR REPLY'
DEBUG:pymodbus.transaction:Changing transaction state from 'WAITING FOR REPLY' to 'PROCESSING REPLY'
DEBUG:pymodbus.transaction:RECV: 0x1 0x3 0x10 0x0 0x0 0x0 0x0 0x0 0x0 0x0 0x0 0x0 0x0 0x0 0x0 0x0 0x0 0x0 0x0 0xe4 0x59
DEBUG:pymodbus.framer.rtu_framer:Getting Frame - 0x3 0x10 0x0 0x0 0x0 0x0 0x0 0x0 0x0 0x0 0x0 0x0 0x0 0x0 0x0 0x0 0x0 0x0
DEBUG:pymodbus.factory:Factory Response[ReadHoldingRegistersResponse: 3]
DEBUG:pymodbus.framer.rtu_framer:Frame advanced, resetting header!!
DEBUG:pymodbus.transaction:Adding transaction 1
DEBUG:pymodbus.transaction:Getting transaction 1
DEBUG:pymodbus.transaction:Changing transaction state from 'PROCESSING REPLY' to 'TRANSACTION_COMPLETE'
DEBUG:pymodbus.transaction:Current transaction state - TRANSACTION_COMPLETE
DEBUG:pymodbus.transaction:Running transaction 6
DEBUG:pymodbus.transaction:SEND: 0x1 0x3 0x1 0x40 0x0 0x8 0x44 0x24
DEBUG:pymodbus.framer.rtu_framer:Changing state to IDLE - Last Frame End - 1605262248.965049, Current Time stamp - 1605262248.969037
DEBUG:pymodbus.client.sync:New Transaction state 'SENDING'
DEBUG:pymodbus.transaction:Changing transaction state from 'SENDING' to 'WAITING FOR REPLY'
DEBUG:pymodbus.transaction:Changing transaction state from 'WAITING FOR REPLY' to 'PROCESSING REPLY'
DEBUG:pymodbus.transaction:RECV: 0x1 0x3 0x10 0x0 0x0 0x0 0x0 0x0 0x0 0x0 0x0 0x0 0x0 0x0 0x0 0x0 0x0 0x0 0x0 0xe4 0x59
DEBUG:pymodbus.framer.rtu_framer:Getting Frame - 0x3 0x10 0x0 0x0 0x0 0x0 0x0 0x0 0x0 0x0 0x0 0x0 0x0 0x0 0x0 0x0 0x0 0x0
DEBUG:pymodbus.factory:Factory Response[ReadHoldingRegistersResponse: 3]
DEBUG:pymodbus.framer.rtu_framer:Frame advanced, resetting header!!
DEBUG:pymodbus.transaction:Adding transaction 1
DEBUG:pymodbus.transaction:Getting transaction 1
DEBUG:pymodbus.transaction:Changing transaction state from 'PROCESSING REPLY' to 'TRANSACTION_COMPLETE'
DEBUG:pymodbus.transaction:Current transaction state - IDLE
DEBUG:pymodbus.transaction:Running transaction 1
DEBUG:pymodbus.transaction:SEND: 0x1 0x3 0x0 0x0 0x0 0x8 0x44 0xc
DEBUG:pymodbus.client.sync:New Transaction state 'SENDING'
DEBUG:pymodbus.transaction:Changing transaction state from 'SENDING' to 'WAITING FOR REPLY'
DEBUG:pymodbus.transaction:Transaction failed. (Modbus Error: [Invalid Message] Incomplete message received, expected at least 2 bytes (0 received)) 
DEBUG:pymodbus.framer.rtu_framer:Frame - [b''] not ready
DEBUG:pymodbus.transaction:Getting transaction 1
DEBUG:pymodbus.transaction:Changing transaction state from 'PROCESSING REPLY' to 'TRANSACTION_COMPLETE'
DEBUG:pymodbus.transaction:Current transaction state - TRANSACTION_COMPLETE
DEBUG:pymodbus.transaction:Running transaction 2
DEBUG:pymodbus.transaction:SEND: 0x1 0x3 0x0 0x40 0x0 0x8 0x45 0xd8
DEBUG:pymodbus.framer.rtu_framer:Changing state to IDLE - Last Frame End - 1605262249.997258, Current Time stamp - 1605262250.018711
DEBUG:pymodbus.client.sync:New Transaction state 'SENDING'
DEBUG:pymodbus.transaction:Changing transaction state from 'SENDING' to 'WAITING FOR REPLY'
DEBUG:pymodbus.transaction:Incomplete message received, Expected 21 bytes Recieved 0 bytes !!!!
DEBUG:pymodbus.transaction:Changing transaction state from 'WAITING FOR REPLY' to 'PROCESSING REPLY'
DEBUG:pymodbus.transaction:RECV: 
DEBUG:pymodbus.framer.rtu_framer:Frame - [b''] not ready
DEBUG:pymodbus.transaction:Getting transaction 1
DEBUG:pymodbus.transaction:Changing transaction state from 'PROCESSING REPLY' to 'TRANSACTION_COMPLETE'
DEBUG:pymodbus.transaction:Current transaction state - TRANSACTION_COMPLETE
DEBUG:pymodbus.transaction:Running transaction 3
DEBUG:pymodbus.transaction:SEND: 0x1 0x3 0x0 0x80 0x0 0x8 0x45 0xe4
DEBUG:pymodbus.framer.rtu_framer:Changing state to IDLE - Last Frame End - 1605262251.019516, Current Time stamp - 1605262251.026464
DEBUG:pymodbus.client.sync:New Transaction state 'SENDING'
DEBUG:pymodbus.transaction:Changing transaction state from 'SENDING' to 'WAITING FOR REPLY'
DEBUG:pymodbus.transaction:Incomplete message received, Expected 21 bytes Recieved 0 bytes !!!!
DEBUG:pymodbus.transaction:Changing transaction state from 'WAITING FOR REPLY' to 'PROCESSING REPLY'
DEBUG:pymodbus.transaction:RECV: 
DEBUG:pymodbus.framer.rtu_framer:Frame - [b''] not ready
DEBUG:pymodbus.transaction:Getting transaction 1
DEBUG:pymodbus.transaction:Changing transaction state from 'PROCESSING REPLY' to 'TRANSACTION_COMPLETE'
DEBUG:pymodbus.transaction:Current transaction state - IDLE
DEBUG:pymodbus.transaction:Running transaction 1
DEBUG:pymodbus.transaction:SEND: 0x1 0x3 0x0 0x0 0x0 0x8 0x44 0xc
DEBUG:pymodbus.client.sync:New Transaction state 'SENDING'
DEBUG:pymodbus.transaction:Changing transaction state from 'SENDING' to 'WAITING FOR REPLY'
DEBUG:pymodbus.transaction:Changing transaction state from 'WAITING FOR REPLY' to 'PROCESSING REPLY'
DEBUG:pymodbus.transaction:RECV: 0x1 0x3 0x10 0xc0 0x3 0x33 0x9b 0xc1 0x3 0x26 0xa0 0xc2 0x3 0xf 0xa0 0xc3 0x3 0x26 0x3a 0x9f 0xd
DEBUG:pymodbus.framer.rtu_framer:Getting Frame - 0x3 0x10 0xc0 0x3 0x33 0x9b 0xc1 0x3 0x26 0xa0 0xc2 0x3 0xf 0xa0 0xc3 0x3 0x26 0x3a
DEBUG:pymodbus.factory:Factory Response[ReadHoldingRegistersResponse: 3]
DEBUG:pymodbus.framer.rtu_framer:Frame advanced, resetting header!!
DEBUG:pymodbus.transaction:Adding transaction 1
DEBUG:pymodbus.transaction:Getting transaction 1
DEBUG:pymodbus.transaction:Changing transaction state from 'PROCESSING REPLY' to 'TRANSACTION_COMPLETE'
DEBUG:pymodbus.transaction:Current transaction state - TRANSACTION_COMPLETE
DEBUG:pymodbus.transaction:Running transaction 2
DEBUG:pymodbus.transaction:SEND: 0x1 0x3 0x0 0x40 0x0 0x8 0x45 0xd8
DEBUG:pymodbus.framer.rtu_framer:Changing state to IDLE - Last Frame End - 1605262252.053584, Current Time stamp - 1605262252.058572
DEBUG:pymodbus.client.sync:New Transaction state 'SENDING'
DEBUG:pymodbus.transaction:Changing transaction state from 'SENDING' to 'WAITING FOR REPLY'
DEBUG:pymodbus.transaction:Changing transaction state from 'WAITING FOR REPLY' to 'PROCESSING REPLY'
DEBUG:pymodbus.transaction:RECV: 0x1 0x3 0x10 0x0 0x0 0x0 0x0 0x0 0x0 0x0 0x0 0x0 0x0 0x0 0x0 0x0 0x0 0x0 0x0 0xe4 0x59
DEBUG:pymodbus.framer.rtu_framer:Getting Frame - 0x3 0x10 0x0 0x0 0x0 0x0 0x0 0x0 0x0 0x0 0x0 0x0 0x0 0x0 0x0 0x0 0x0 0x0
DEBUG:pymodbus.factory:Factory Response[ReadHoldingRegistersResponse: 3]
DEBUG:pymodbus.framer.rtu_framer:Frame advanced, resetting header!!
DEBUG:pymodbus.transaction:Adding transaction 1
DEBUG:pymodbus.transaction:Getting transaction 1
DEBUG:pymodbus.transaction:Changing transaction state from 'PROCESSING REPLY' to 'TRANSACTION_COMPLETE'
DEBUG:pymodbus.transaction:Current transaction state - TRANSACTION_COMPLETE
DEBUG:pymodbus.transaction:Running transaction 3
DEBUG:pymodbus.transaction:SEND: 0x1 0x3 0x0 0x80 0x0 0x8 0x45 0xe4
DEBUG:pymodbus.framer.rtu_framer:Changing state to IDLE - Last Frame End - 1605262252.069541, Current Time stamp - 1605262252.073534
DEBUG:pymodbus.client.sync:New Transaction state 'SENDING'
DEBUG:pymodbus.transaction:Changing transaction state from 'SENDING' to 'WAITING FOR REPLY'
DEBUG:pymodbus.transaction:Changing transaction state from 'WAITING FOR REPLY' to 'PROCESSING REPLY'
DEBUG:pymodbus.transaction:RECV: 0x1 0x3 0x10 0x0 0x0 0x0 0x0 0x0 0x0 0x0 0x0 0x0 0x0 0x0 0x0 0x0 0x0 0x0 0x0 0xe4 0x59
DEBUG:pymodbus.framer.rtu_framer:Getting Frame - 0x3 0x10 0x0 0x0 0x0 0x0 0x0 0x0 0x0 0x0 0x0 0x0 0x0 0x0 0x0 0x0 0x0 0x0
DEBUG:pymodbus.factory:Factory Response[ReadHoldingRegistersResponse: 3]
DEBUG:pymodbus.framer.rtu_framer:Frame advanced, resetting header!!
DEBUG:pymodbus.transaction:Adding transaction 1
DEBUG:pymodbus.transaction:Getting transaction 1
DEBUG:pymodbus.transaction:Changing transaction state from 'PROCESSING REPLY' to 'TRANSACTION_COMPLETE'
DEBUG:pymodbus.transaction:Current transaction state - TRANSACTION_COMPLETE
DEBUG:pymodbus.transaction:Running transaction 4
DEBUG:pymodbus.transaction:SEND: 0x1 0x3 0x0 0xc0 0x0 0x8 0x44 0x30
DEBUG:pymodbus.framer.rtu_framer:Changing state to IDLE - Last Frame End - 1605262252.084536, Current Time stamp - 1605262252.088575
DEBUG:pymodbus.client.sync:New Transaction state 'SENDING'
DEBUG:pymodbus.transaction:Changing transaction state from 'SENDING' to 'WAITING FOR REPLY'
DEBUG:pymodbus.transaction:Changing transaction state from 'WAITING FOR REPLY' to 'PROCESSING REPLY'
DEBUG:pymodbus.transaction:RECV: 0x1 0x3 0x10 0x0 0x0 0x0 0x0 0x0 0x0 0x0 0x0 0x0 0x0 0x0 0x0 0x0 0x0 0x0 0x0 0xe4 0x59
DEBUG:pymodbus.framer.rtu_framer:Getting Frame - 0x3 0x10 0x0 0x0 0x0 0x0 0x0 0x0 0x0 0x0 0x0 0x0 0x0 0x0 0x0 0x0 0x0 0x0
DEBUG:pymodbus.factory:Factory Response[ReadHoldingRegistersResponse: 3]
DEBUG:pymodbus.framer.rtu_framer:Frame advanced, resetting header!!
DEBUG:pymodbus.transaction:Adding transaction 1
DEBUG:pymodbus.transaction:Getting transaction 1
DEBUG:pymodbus.transaction:Changing transaction state from 'PROCESSING REPLY' to 'TRANSACTION_COMPLETE'
DEBUG:pymodbus.transaction:Current transaction state - TRANSACTION_COMPLETE
DEBUG:pymodbus.transaction:Running transaction 5
DEBUG:pymodbus.transaction:SEND: 0x1 0x3 0x1 0x0 0x0 0x8 0x45 0xf0
DEBUG:pymodbus.framer.rtu_framer:Changing state to IDLE - Last Frame End - 1605262252.099511, Current Time stamp - 1605262252.103501
DEBUG:pymodbus.client.sync:New Transaction state 'SENDING'
DEBUG:pymodbus.transaction:Changing transaction state from 'SENDING' to 'WAITING FOR REPLY'
DEBUG:pymodbus.transaction:Changing transaction state from 'WAITING FOR REPLY' to 'PROCESSING REPLY'
DEBUG:pymodbus.transaction:RECV: 0x1 0x3 0x10 0x0 0x0 0x0 0x0 0x0 0x0 0x0 0x0 0x0 0x0 0x0 0x0 0x0 0x0 0x0 0x0 0xe4 0x59
DEBUG:pymodbus.framer.rtu_framer:Getting Frame - 0x3 0x10 0x0 0x0 0x0 0x0 0x0 0x0 0x0 0x0 0x0 0x0 0x0 0x0 0x0 0x0 0x0 0x0
DEBUG:pymodbus.factory:Factory Response[ReadHoldingRegistersResponse: 3]
DEBUG:pymodbus.framer.rtu_framer:Frame advanced, resetting header!!
DEBUG:pymodbus.transaction:Adding transaction 1
DEBUG:pymodbus.transaction:Getting transaction 1
DEBUG:pymodbus.transaction:Changing transaction state from 'PROCESSING REPLY' to 'TRANSACTION_COMPLETE'
DEBUG:pymodbus.transaction:Current transaction state - TRANSACTION_COMPLETE
DEBUG:pymodbus.transaction:Running transaction 6
DEBUG:pymodbus.transaction:SEND: 0x1 0x3 0x1 0x40 0x0 0x8 0x44 0x24
DEBUG:pymodbus.framer.rtu_framer:Changing state to IDLE - Last Frame End - 1605262252.114512, Current Time stamp - 1605262252.117505
DEBUG:pymodbus.client.sync:New Transaction state 'SENDING'
DEBUG:pymodbus.transaction:Changing transaction state from 'SENDING' to 'WAITING FOR REPLY'
DEBUG:pymodbus.transaction:Changing transaction state from 'WAITING FOR REPLY' to 'PROCESSING REPLY'
DEBUG:pymodbus.transaction:RECV: 0x1 0x3 0x10 0x0 0x0 0x0 0x0 0x0 0x0 0x0 0x0 0x0 0x0 0x0 0x0 0x0 0x0 0x0 0x0 0xe4 0x59
DEBUG:pymodbus.framer.rtu_framer:Getting Frame - 0x3 0x10 0x0 0x0 0x0 0x0 0x0 0x0 0x0 0x0 0x0 0x0 0x0 0x0 0x0 0x0 0x0 0x0
DEBUG:pymodbus.factory:Factory Response[ReadHoldingRegistersResponse: 3]
DEBUG:pymodbus.framer.rtu_framer:Frame advanced, resetting header!!
DEBUG:pymodbus.transaction:Adding transaction 1
DEBUG:pymodbus.transaction:Getting transaction 1
DEBUG:pymodbus.transaction:Changing transaction state from 'PROCESSING REPLY' to 'TRANSACTION_COMPLETE'
INFO:root:Time Consuming: 3.8961946964263916
